!Mini-Circuits Laboratory
!S-Parameters
!Model: ZX60-33LNR-S+
!Run / Lot / Date Code: E181103 / N/A / N/A
!Fixture: N/A, Pressing Arm: N/A
!Network Analyzer: PNA-X N5242A - 423 4 ports;  Serial number: 74302
!Date: 11/9/2018 at 2:35:35 PM
!S/N: Unit# 4
!Volage and Current limited to 5V and 150mA
# Hz  S  dB  R  50
!Frequency    S11 dB        S11 Deg       S21 dB        S21 Deg       S12 dB        S12 Deg       S22 dB        S22 Deg       
10000000      -7.2144680    -8.2342620    24.7642200    -167.9197000  -39.5948100   79.4258800    -16.5826100   38.5031400    
15000000      -7.3837620    -10.1289400   24.8585300    -173.5190000  -36.8555000   64.7207100    -18.9001900   -5.6191640    
20000000      -7.6348390    -11.3536300   24.8729300    -177.3830000  -35.3172100   53.7817400    -20.2882800   -36.9851700   
25000000      -7.8123020    -12.6527100   24.8603200    -179.9448000  -34.3825400   46.0234500    -20.8250700   -62.5830100   
30000000      -7.8734690    -13.7867900   24.8375700    178.2858000   -33.7778500   40.1094000    -20.8143500   -80.7634000   
35000000      -7.9118730    -14.9359800   24.8174300    176.7101000   -33.3783100   35.5365600    -20.8101400   -94.4679600   
40000000      -7.9597820    -16.2324500   24.8045800    175.2391000   -33.0872200   31.7751900    -20.7736500   -105.7375000  
45000000      -7.9689950    -17.5729800   24.7928300    173.8986000   -32.8693400   28.7033200    -20.7328000   -114.6087000  
50000000      -7.9330480    -18.3366300   24.7897000    172.5739000   -32.6726300   26.4667600    -20.8709900   -122.1698000  
55000000      -7.9617180    -20.4145400   24.7768400    171.4679000   -32.5767900   24.0657400    -20.6510900   -127.9299000  
60000000      -7.9468100    -21.9321600   24.7669800    170.3099000   -32.4769500   22.2601900    -20.6265400   -133.0802000  
65000000      -7.9427950    -23.4667500   24.7573300    169.1779000   -32.3929500   20.7083700    -20.5969900   -137.6435000  
70000000      -7.9309730    -25.0447000   24.7446900    168.0593000   -32.3248900   19.3816500    -20.5783200   -141.6897000  
75000000      -7.9254400    -26.6593100   24.7334200    166.9534000   -32.2630000   18.1912500    -20.5372800   -145.3263000  
80000000      -7.9110920    -28.1919800   24.7192000    165.8930000   -32.2129900   17.1656500    -20.5339400   -148.4830000  
85000000      -7.8894000    -29.8113300   24.7067400    164.8207000   -32.1659500   16.2428000    -20.5364600   -151.3081000  
90000000      -7.8723000    -31.4181900   24.6926600    163.7703000   -32.1251100   15.4474900    -20.5265100   -153.8248000  
95000000      -7.8627430    -33.0039500   24.6787000    162.7306000   -32.0866100   14.6874900    -20.5301200   -156.2617000  
100000000     -7.8483510    -34.6357400   24.6652600    161.6929000   -32.0549700   14.0198700    -20.5250900   -158.4001000  
105000000     -7.8332620    -36.1813200   24.6465300    160.6712000   -32.0198500   13.4043900    -20.5398500   -160.5425000  
110000000     -7.8130070    -37.8079900   24.6332200    159.6665000   -31.9872500   12.8492200    -20.5412100   -162.2168000  
115000000     -7.8026370    -39.3803500   24.6130500    158.6552000   -31.9614000   12.3350900    -20.5460300   -164.2073000  
120000000     -7.7890600    -40.9976700   24.5926300    157.6474000   -31.9314200   11.8957600    -20.5556600   -165.8963000  
125000000     -7.7636410    -42.5174800   24.5756100    156.6883000   -31.9038400   11.4313300    -20.5728100   -167.5409000  
130000000     -7.7446530    -44.0618600   24.5558600    155.6815000   -31.8789100   11.0355500    -20.5816900   -169.1289000  
135000000     -7.7390230    -45.6414300   24.5345500    154.7025000   -31.8561900   10.6626000    -20.6039500   -170.5595000  
140000000     -7.7119680    -47.1870400   24.5160100    153.7372000   -31.8245000   10.3002400    -20.6079300   -171.8191000  
145000000     -7.7065830    -48.7672700   24.4956100    152.7723000   -31.8026500   9.9887220     -20.6273300   -173.2803000  
150000000     -7.6804700    -50.2510100   24.4726200    151.7998000   -31.7805400   9.6950860     -20.6479500   -174.5481000  
155000000     -7.6664220    -51.8394900   24.4518200    150.8527000   -31.7535500   9.4113610     -20.6677400   -175.7838000  
160000000     -7.6537710    -53.3547800   24.4280200    149.8809000   -31.7287000   9.1302470     -20.6741600   -177.0284000  
165000000     -7.6375220    -54.8312500   24.4048900    148.9425000   -31.7049400   8.8480110     -20.7005000   -178.2061000  
170000000     -7.6207700    -56.3268700   24.3796600    147.9942000   -31.6792900   8.5991430     -20.7314600   -179.4034000  
175000000     -7.5980050    -57.8028700   24.3566100    147.0575000   -31.6542500   8.3650580     -20.7645900   179.5812000   
180000000     -7.5837690    -59.2574300   24.3308200    146.1298000   -31.6276100   8.1224590     -20.7885300   178.5482000   
185000000     -7.5624700    -60.7455300   24.3062700    145.1857000   -31.6019100   7.9124570     -20.8125800   177.5649000   
190000000     -7.5512600    -62.1841900   24.2790600    144.2605000   -31.5774200   7.7185080     -20.8439200   176.5528000   
195000000     -7.5295510    -63.6194500   24.2524900    143.3348000   -31.5505400   7.5033040     -20.8798900   175.5983000   
200000000     -7.5153290    -65.0868800   24.2245900    142.4179000   -31.5249300   7.2962960     -20.8924400   174.6811000   
205000000     -7.4931320    -66.4535200   24.1980400    141.5086000   -31.5001700   7.0925390     -20.9384400   173.8174000   
210000000     -7.4767000    -67.8730900   24.1696900    140.5914000   -31.4751400   6.9137960     -20.9719900   172.9552000   
215000000     -7.4555090    -69.2859900   24.1432900    139.6855000   -31.4442100   6.7332340     -21.0124800   172.1804000   
220000000     -7.4416170    -70.6342000   24.1147400    138.7905000   -31.4191700   6.5520170     -21.0541700   171.3214000   
225000000     -7.4220670    -72.0305600   24.0868300    137.8788000   -31.3940000   6.3760130     -21.0777500   170.5142000   
230000000     -7.4061190    -73.3553100   24.0577900    136.9973000   -31.3634700   6.1854820     -21.1299900   169.6909000   
235000000     -7.3851830    -74.7778300   24.0282300    136.0922000   -31.3377400   6.0064660     -21.1556000   168.9506000   
240000000     -7.3696990    -76.0928600   23.9982400    135.2048000   -31.3076500   5.8482240     -21.1907800   168.1515000   
245000000     -7.3487360    -77.4468200   23.9689800    134.3151000   -31.2802900   5.6657150     -21.2224800   167.3409000   
250000000     -7.3306240    -78.8188600   23.9373100    133.4243000   -31.2483600   5.5091130     -21.2628800   166.6238000   
255000000     -7.3202990    -80.0664900   23.9072100    132.5597000   -31.2200400   5.3342690     -21.3187800   165.8037000   
260000000     -7.2927130    -81.3736600   23.8774000    131.6731000   -31.1920700   5.1661100     -21.3600500   165.0617000   
265000000     -7.2739770    -82.6853800   23.8476000    130.7951000   -31.1637300   5.0092240     -21.4013500   164.3784000   
270000000     -7.2594200    -83.9719500   23.8153800    129.9318000   -31.1339300   4.8328460     -21.4484700   163.6079000   
275000000     -7.2475970    -85.2624300   23.7827500    129.0610000   -31.1057800   4.6685270     -21.4860900   162.9471000   
280000000     -7.2245690    -86.5183100   23.7504400    128.2092000   -31.0734000   4.5047320     -21.5388800   162.2583000   
285000000     -7.2105710    -87.7915900   23.7164100    127.3513000   -31.0439300   4.3335980     -21.5862700   161.5760000   
290000000     -7.1913080    -89.0563300   23.6848300    126.4942000   -31.0133300   4.1739420     -21.6208200   160.9726000   
295000000     -7.1721800    -90.2626700   23.6523900    125.6400000   -30.9817700   4.0044850     -21.6705400   160.3101000   
300000000     -7.1544970    -91.4625400   23.6203200    124.8000000   -30.9481700   3.8546080     -21.7222100   159.8008000   
305000000     -7.1408970    -92.6733800   23.5862800    123.9540000   -30.9208400   3.6795870     -21.7764900   159.1120000   
310000000     -7.1170150    -93.8692600   23.5541700    123.1167000   -30.8890200   3.5228980     -21.8292000   158.6078000   
315000000     -7.1023980    -95.0438600   23.5195500    122.2868000   -30.8600400   3.3446730     -21.8764000   157.9873000   
320000000     -7.0873040    -96.2225300   23.4865900    121.4616000   -30.8280400   3.1806110     -21.9293800   157.3952000   
325000000     -7.0702760    -97.3857300   23.4525200    120.6257000   -30.7947300   3.0197300     -21.9738700   156.8368000   
330000000     -7.0503330    -98.5728300   23.4180600    119.7897000   -30.7646400   2.8429080     -22.0268800   156.2632000   
335000000     -7.0335010    -99.7211500   23.3836200    118.9611000   -30.7330000   2.6809570     -22.0777800   155.7574000   
340000000     -7.0200570    -100.8545000  23.3490100    118.1485000   -30.7011600   2.4971730     -22.1411500   155.1599000   
345000000     -7.0004420    -101.9756000  23.3161900    117.3288000   -30.6696700   2.3333710     -22.2137900   154.6809000   
350000000     -6.9876260    -103.1122000  23.2811500    116.4936000   -30.6416200   2.1401020     -22.2372200   154.1399000   
355000000     -6.9694890    -104.2277000  23.2450800    115.6915000   -30.6063500   1.9719590     -22.3100200   153.5855000   
360000000     -6.9522050    -105.3405000  23.2107400    114.8877000   -30.5737200   1.8022390     -22.3698200   153.0979000   
365000000     -6.9432030    -106.4685000  23.1755900    114.0803000   -30.5432500   1.6061980     -22.4214400   152.5031000   
370000000     -6.9304750    -107.5807000  23.1383600    113.2691000   -30.5106300   1.4265460     -22.4691000   151.9667000   
375000000     -6.9184990    -108.6256000  23.1031200    112.4673000   -30.4782400   1.2544190     -22.5230700   151.4054000   
380000000     -6.8949930    -109.6846000  23.0687100    111.6657000   -30.4453600   1.0709220     -22.5791500   150.9112000   
385000000     -6.8859740    -110.7498000  23.0319200    110.8732000   -30.4135200   0.8849477     -22.6380900   150.3077000   
390000000     -6.8672100    -111.7915000  22.9977000    110.0714000   -30.3834100   0.7038722     -22.6932300   149.8279000   
395000000     -6.8567200    -112.8300000  22.9603000    109.2850000   -30.3506100   0.5144865     -22.7488100   149.2321000   
400000000     -6.8457280    -113.8883000  22.9239100    108.4903000   -30.3170200   0.3348840     -22.8086300   148.8076000   
405000000     -6.8316090    -114.9128000  22.8873200    107.7132000   -30.2852700   0.1444273     -22.8767500   148.2437000   
410000000     -6.8197800    -115.9600000  22.8497000    106.9255000   -30.2524600   -0.0519177    -22.9150400   147.8271000   
415000000     -6.8049960    -116.9840000  22.8125200    106.1516000   -30.2203000   -0.2341620    -22.9868300   147.2902000   
420000000     -6.7966000    -117.9606000  22.7764000    105.3735000   -30.1875300   -0.4307481    -23.0566300   146.8002000   
425000000     -6.7852980    -118.9368000  22.7405700    104.6018000   -30.1536600   -0.6300120    -23.1221500   146.4653000   
430000000     -6.7730980    -119.9194000  22.7048100    103.8320000   -30.1212800   -0.8190376    -23.1993800   146.0537000   
435000000     -6.7615770    -120.8859000  22.6684900    103.0598000   -30.0890400   -1.0186990    -23.2635500   145.6314000   
440000000     -6.7527230    -121.8584000  22.6298500    102.3006000   -30.0573800   -1.2190130    -23.3355000   145.2533000   
445000000     -6.7434690    -122.8198000  22.5924300    101.5364000   -30.0243400   -1.4262780    -23.3989200   144.8743000   
450000000     -6.7330400    -123.7660000  22.5532200    100.7759000   -29.9934100   -1.6134770    -23.4724100   144.4831000   
455000000     -6.7222530    -124.7400000  22.5165700    100.0203000   -29.9600200   -1.8313080    -23.5407100   144.1260000   
460000000     -6.7176130    -125.6285000  22.4785700    99.2723100    -29.9299000   -2.0477360    -23.6130100   143.7002000   
465000000     -6.7083630    -126.6016000  22.4409000    98.5137300    -29.8949000   -2.2469990    -23.6887900   143.3797000   
470000000     -6.7033060    -127.5139000  22.4035800    97.7712500    -29.8636400   -2.4597030    -23.7626200   143.0297000   
475000000     -6.6925040    -128.4278000  22.3667900    97.0194500    -29.8300400   -2.6622460    -23.8467000   142.7444000   
480000000     -6.6837160    -129.3374000  22.3289100    96.2767800    -29.7987100   -2.8784180    -23.9260600   142.3477000   
485000000     -6.6713380    -130.2504000  22.2913400    95.5358400    -29.7662500   -3.0899040    -24.0050700   142.0482000   
490000000     -6.6693080    -131.1561000  22.2522400    94.7996900    -29.7347700   -3.3099700    -24.0744400   141.6165000   
495000000     -6.6569700    -132.0587000  22.2143800    94.0578500    -29.7024100   -3.5186410    -24.1553800   141.3552000   
500000000     -6.6524640    -132.9368000  22.1768100    93.3347800    -29.6705500   -3.7452340    -24.2397300   141.0194000   
525000000     -6.6043500    -137.2300000  21.9873600    89.7141600    -29.5116600   -4.8294870    -24.6507100   139.5871000   
550000000     -6.5767820    -141.3722000  21.8003000    86.1437600    -29.3531100   -5.9836770    -25.0497000   138.0976000   
575000000     -6.5394120    -145.4684000  21.6100300    82.6663900    -29.1860400   -7.1396090    -25.5298000   137.1784000   
600000000     -6.5162720    -149.2080000  21.4288700    79.2118100    -29.0280900   -8.3166120    -25.9714700   136.0736000   
625000000     -6.4847010    -152.9660000  21.2431800    75.8074700    -28.8666200   -9.5490930    -26.4553200   135.2188000   
650000000     -6.4655990    -156.6620000  21.0608100    72.4264400    -28.7090300   -10.8018100   -26.9161900   134.7642000   
675000000     -6.4473490    -160.3510000  20.8776700    69.0750000    -28.5456800   -12.1182100   -27.4237200   134.6311000   
700000000     -6.4193190    -164.0701000  20.6868300    65.7543600    -28.3908300   -13.5304500   -27.9595900   134.1650000   
725000000     -6.4891370    -167.7633000  20.4753500    62.6076000    -28.2746000   -14.9282500   -28.9367700   133.6773000   
750000000     -6.5485090    -170.2860000  20.3290500    59.7560000    -28.1072200   -15.9299100   -29.6631400   139.1848000   
775000000     -6.5057900    -173.2774000  20.1772900    56.5173800    -27.9320000   -17.3834200   -29.9939600   141.2634000   
800000000     -6.4785110    -176.4767000  20.0097000    53.3119100    -27.7752700   -18.8696600   -30.4813900   143.5764000   
825000000     -6.4832980    -179.5531000  19.8407700    50.1649400    -27.6219300   -20.3270700   -30.9368400   146.2817000   
850000000     -6.4879360    177.4472000   19.6741000    47.0789500    -27.4714200   -21.8289400   -31.3866500   149.9385000   
875000000     -6.4914340    174.5310000   19.5049200    44.0475000    -27.3212600   -23.3545400   -31.7364300   154.1577000   
900000000     -6.5165350    171.6367000   19.3432700    41.0251100    -27.1775400   -24.9115900   -32.0622100   160.3747000   
925000000     -6.5252180    168.8538000   19.1805800    38.0300900    -27.0346100   -26.4452100   -32.2175800   166.1252000   
950000000     -6.5498930    166.0493000   19.0207500    35.0663300    -26.8961500   -28.0130900   -32.2015300   172.5465000   
975000000     -6.5611380    163.3590000   18.8614000    32.1076300    -26.7543600   -29.6156300   -31.9306200   178.1950000   
1000000000    -6.5837880    160.6443000   18.7036700    29.1842500    -26.6192200   -31.2182900   -31.6071400   -176.2877000  
1025000000    -6.6147860    158.0476000   18.5471900    26.2732600    -26.4895400   -32.8424600   -31.1929300   -171.2244000  
1050000000    -6.6366490    155.4298000   18.3906100    23.3709700    -26.3565900   -34.5048000   -30.6336700   -166.6680000  
1075000000    -6.6422100    152.8169000   18.2321300    20.4795200    -26.2313000   -36.1843100   -29.9392200   -162.4852000  
1100000000    -6.6695430    150.2618000   18.0749700    17.6146600    -26.1122800   -37.8577600   -29.0616200   -158.7182000  
1125000000    -6.6805040    147.5519000   17.9065000    14.7887400    -26.0023600   -39.5449000   -28.0448300   -155.5399000  
1150000000    -6.6982590    144.7371000   17.7254200    12.0756500    -25.9115700   -41.1382300   -26.7832000   -153.9003000  
1175000000    -6.7644310    141.6971000   17.5405800    9.6591820     -25.8194500   -42.4144100   -25.3844500   -156.3583000  
1200000000    -6.9352980    138.9261000   17.4265700    7.5262210     -25.6577300   -43.5184000   -24.5985300   -163.4104000  
1225000000    -7.0667520    136.9615000   17.3717500    4.9571180     -25.4471500   -45.1083000   -24.6533600   -168.4957000  
1250000000    -7.1437830    135.0340000   17.2879800    2.1043610     -25.2696800   -47.0146500   -24.7803900   -169.4900000  
1275000000    -7.1923780    132.9724000   17.1815900    -0.7967747    -25.1236900   -48.9403500   -24.6921500   -169.4945000  
1300000000    -7.2323780    130.8494000   17.0632300    -3.6501970    -24.9872400   -50.8352600   -24.4626700   -169.2125000  
1325000000    -7.2880060    128.6781000   16.9430600    -6.4353670    -24.8596500   -52.7389800   -24.1275800   -168.9911000  
1350000000    -7.3379340    126.4950000   16.8215800    -9.2182000    -24.7367500   -54.6265600   -23.7068700   -169.0729000  
1375000000    -7.3897970    124.3384000   16.6968600    -11.9753800   -24.6146700   -56.4957700   -23.3350000   -169.7597000  
1400000000    -7.4369540    122.1246000   16.5719500    -14.7035800   -24.4981800   -58.3398400   -22.9817100   -170.3947000  
1425000000    -7.4892820    120.0557000   16.4506100    -17.3860000   -24.3756800   -60.1831600   -22.5817000   -171.1860000  
1450000000    -7.5553780    117.9099000   16.3310900    -20.0944600   -24.2627800   -62.0342500   -22.2222600   -172.0993000  
1475000000    -7.6209760    115.7430000   16.2111300    -22.7312200   -24.1475000   -63.9120400   -21.8834200   -173.1444000  
1500000000    -7.6795490    113.6471000   16.0958400    -25.3878800   -24.0303100   -65.8264500   -21.5395700   -174.4577000  
1525000000    -7.7469000    111.4085000   15.9818300    -28.0451300   -23.9192300   -67.7352600   -21.2157800   -175.7305000  
1550000000    -7.8090830    109.3970000   15.8672700    -30.6695000   -23.8062000   -69.6007900   -20.9249600   -177.0023000  
1575000000    -7.8745880    107.3089000   15.7569700    -33.2971500   -23.6933200   -71.5085500   -20.6197100   -178.3444000  
1600000000    -7.9500550    105.2135000   15.6504200    -35.9474800   -23.5820400   -73.4290700   -20.2897400   -179.7246000  
1625000000    -8.0203240    103.0409000   15.5405200    -38.5471600   -23.4738600   -75.3603700   -20.0150100   178.7781000   
1650000000    -8.0788020    101.0050000   15.4360900    -41.1468200   -23.3642700   -77.2856800   -19.7539300   177.3621000   
1675000000    -8.1550400    98.8585300    15.3283500    -43.7454800   -23.2570800   -79.2826500   -19.4646600   175.7597000   
1700000000    -8.2435870    96.8111800    15.2245800    -46.3664900   -23.1569000   -81.2236000   -19.1986300   174.0215000   
1725000000    -8.3205580    94.6990400    15.1210600    -48.9517700   -23.0531600   -83.1707500   -18.9502700   172.5746000   
1750000000    -8.4015890    92.6023400    15.0201200    -51.4975700   -22.9506800   -85.1608500   -18.6717900   170.9731000   
1775000000    -8.4809200    90.4671000    14.9185700    -54.0900100   -22.8551600   -87.1201900   -18.4221700   169.2290000   
1800000000    -8.5825640    88.4468700    14.8193300    -56.6499400   -22.7594900   -89.0799000   -18.1686600   167.2595000   
1825000000    -8.6777050    86.3662600    14.7236000    -59.2034500   -22.6549000   -91.0300100   -17.9319900   165.3574000   
