!Mini-Circuits Laboratory
!S-Parameters
!Model: ZX60-33LNR-S+
!Run / Lot / Date Code: E181103 / N/A / N/A
!Fixture: N/A, Pressing Arm: N/A
!Network Analyzer: PNA-X N5242A - 423 4 ports;  Serial number: 74302
!Date: 11/9/2018 at 2:33:56 PM
!S/N: Unit# 1
!Volage and Current limited to 5V and 150mA
# Hz  S  dB  R  50
!Frequency    S11 dB        S11 Deg       S21 dB        S21 Deg       S12 dB        S12 Deg       S22 dB        S22 Deg       
10000000      -7.0576970    -7.7591180    24.6828700    -166.0228000  -39.7409900   81.6027700    -16.1735300   56.7895300    
15000000      -7.2183050    -10.3532500   24.8306400    -172.1559000  -36.9645200   66.6472400    -20.2707500   10.6608300    
20000000      -7.4893660    -12.0708400   24.8638000    -176.3720000  -35.3663900   55.3274800    -22.6232400   -28.8665500   
25000000      -7.6896060    -13.6052300   24.8571500    -179.1805000  -34.4014000   47.2254600    -23.0603800   -63.2982500   
30000000      -7.7974120    -14.9299900   24.8362400    178.9089000   -33.8028500   41.1911900    -22.4866100   -86.0740200   
35000000      -7.8746230    -16.1223900   24.8160400    177.2302000   -33.3808700   36.4434600    -21.9817300   -101.6310000  
40000000      -7.9411670    -17.4301800   24.8029100    175.6880000   -33.0906800   32.5467100    -21.5521200   -113.5686000  
45000000      -7.9725080    -18.7640300   24.7903000    174.2906000   -32.8723400   29.4159300    -21.2220000   -122.4870000  
50000000      -7.9184900    -19.9585900   24.7868900    172.9125000   -32.6569800   26.8766300    -21.1351700   -130.0661000  
55000000      -8.0017710    -21.5151100   24.7739900    171.7828000   -32.5715100   24.6751400    -20.7612200   -135.2412000  
60000000      -8.0016490    -23.0207900   24.7638200    170.5947000   -32.4680000   22.8055700    -20.6108900   -140.0424000  
65000000      -8.0072270    -24.5034000   24.7538200    169.4378000   -32.3817500   21.2257300    -20.4827400   -144.2456000  
70000000      -8.0077870    -26.0357200   24.7408900    168.2977000   -32.3112700   19.8428100    -20.3840000   -147.9518000  
75000000      -8.0134430    -27.6123500   24.7264300    167.1846000   -32.2524000   18.6085700    -20.2811500   -151.2285000  
80000000      -8.0042860    -29.1074000   24.7154500    166.0930000   -32.2014300   17.5380200    -20.2266200   -154.0835000  
85000000      -7.9901660    -30.6688000   24.7027400    165.0089000   -32.1537500   16.6038900    -20.1887100   -156.6394000  
90000000      -7.9766120    -32.2406100   24.6887400    163.9440000   -32.1147900   15.7489300    -20.1472300   -158.8913000  
95000000      -7.9674670    -33.7651000   24.6748300    162.8935000   -32.0739800   14.9793400    -20.1224100   -161.0919000  
100000000     -7.9541990    -35.3754200   24.6615300    161.8395000   -32.0379400   14.2712100    -20.0960300   -163.0191000  
105000000     -7.9485480    -36.8865100   24.6433600    160.8077000   -32.0072800   13.6711900    -20.0886000   -164.9538000  
110000000     -7.9288850    -38.4638200   24.6298600    159.7933000   -31.9742800   13.0727200    -20.0763300   -166.4582000  
115000000     -7.9197310    -40.0427000   24.6095700    158.7699000   -31.9471000   12.5357500    -20.0648800   -168.2676000  
120000000     -7.9109560    -41.5584000   24.5899100    157.7597000   -31.9262900   12.0720200    -20.0597300   -169.8123000  
125000000     -7.8862590    -43.0830600   24.5724900    156.7685000   -31.8969400   11.6102400    -20.0684300   -171.3271000  
130000000     -7.8796350    -44.5979000   24.5521100    155.7737000   -31.8695800   11.2219100    -20.0662200   -172.7672000  
135000000     -7.8645320    -46.1374400   24.5309500    154.7906000   -31.8439300   10.8054400    -20.0793900   -174.0956000  
140000000     -7.8350210    -47.7213400   24.5121100    153.8130000   -31.8084500   10.4773300    -20.0806200   -175.2415000  
145000000     -7.8337930    -49.2080900   24.4916500    152.8429000   -31.7942200   10.1307500    -20.0930500   -176.5994000  
150000000     -7.8102880    -50.7308800   24.4698900    151.8750000   -31.7717400   9.7973450     -20.1057800   -177.7814000  
155000000     -7.7960240    -52.2526300   24.4471800    150.9126000   -31.7442700   9.5028610     -20.1203600   -178.9258000  
160000000     -7.7755620    -53.7660400   24.4251700    149.9342000   -31.7210600   9.2284980     -20.1213000   179.9155000   
165000000     -7.7633580    -55.2563200   24.4013500    148.9888000   -31.6977800   8.9560170     -20.1420000   178.8181000   
170000000     -7.7460270    -56.6811300   24.3764200    148.0356000   -31.6733000   8.6912720     -20.1657100   177.7029000   
175000000     -7.7219680    -58.1461100   24.3537200    147.0948000   -31.6476500   8.4520920     -20.1916100   176.7395000   
180000000     -7.7081860    -59.5987600   24.3278600    146.1615000   -31.6223500   8.1975030     -20.2097300   175.7599000   
185000000     -7.6853130    -61.0545300   24.3034100    145.2147000   -31.5970700   8.0105440     -20.2263900   174.8225000   
190000000     -7.6749080    -62.4787100   24.2762700    144.2840000   -31.5715700   7.7752970     -20.2513500   173.8497000   
195000000     -7.6532260    -63.8989500   24.2502200    143.3536000   -31.5482500   7.5616190     -20.2797000   172.9369000   
200000000     -7.6426110    -65.3406800   24.2220700    142.4348000   -31.5219300   7.3208080     -20.2868300   172.0518000   
205000000     -7.6195840    -66.6975300   24.1956000    141.5203000   -31.4961100   7.1544290     -20.3277100   171.2126000   
210000000     -7.6029320    -68.1303900   24.1667700    140.5947000   -31.4705800   6.9664160     -20.3540000   170.3872000   
215000000     -7.5807810    -69.5111500   24.1411100    139.6862000   -31.4444400   6.7818590     -20.3889800   169.6431000   
220000000     -7.5654910    -70.8220600   24.1125700    138.7901000   -31.4198000   6.5969510     -20.4261300   168.8150000   
225000000     -7.5484500    -72.2449300   24.0840000    137.8591000   -31.3908900   6.4212650     -20.4439700   168.0621000   
230000000     -7.5334360    -73.5555600   24.0553400    136.9841000   -31.3656100   6.2304960     -20.4906300   167.2664000   
235000000     -7.5124850    -74.9462400   24.0268700    136.0790000   -31.3373700   6.0625330     -20.5113900   166.5640000   
240000000     -7.4961980    -76.2602100   23.9968100    135.1889000   -31.3061800   5.8876580     -20.5428500   165.8042000   
245000000     -7.4793010    -77.5927800   23.9668700    134.2928000   -31.2799500   5.7114380     -20.5694200   165.0334000   
250000000     -7.4601420    -78.9896500   23.9355600    133.3973000   -31.2494900   5.5229620     -20.6069700   164.3389000   
255000000     -7.4425070    -80.2405900   23.9058600    132.5238000   -31.2234200   5.3811720     -20.6587800   163.5431000   
260000000     -7.4223710    -81.5388800   23.8755600    131.6396000   -31.1954200   5.2001360     -20.6978000   162.8247000   
265000000     -7.4019340    -82.8235900   23.8462700    130.7601000   -31.1672900   5.0487720     -20.7388700   162.1555000   
270000000     -7.3861700    -84.0831900   23.8143400    129.8933000   -31.1381500   4.8754030     -20.7851900   161.3941000   
275000000     -7.3694900    -85.3805100   23.7829600    129.0295000   -31.1095300   4.6980160     -20.8246000   160.7379000   
280000000     -7.3489340    -86.6269900   23.7488500    128.1639000   -31.0790800   4.5435680     -20.8763600   160.0418000   
285000000     -7.3316220    -87.8994800   23.7152900    127.3014000   -31.0480400   4.3821590     -20.9267700   159.3480000   
290000000     -7.3093480    -89.1433200   23.6842500    126.4457000   -31.0164500   4.2112580     -20.9618100   158.7330000   
295000000     -7.2919110    -90.3534400   23.6517400    125.5872000   -30.9886300   4.0492950     -21.0122900   158.0640000   
300000000     -7.2718040    -91.5698700   23.6203400    124.7443000   -30.9598100   3.8682640     -21.0639100   157.5270000   
305000000     -7.2564590    -92.7604600   23.5865600    123.8927000   -30.9269200   3.7153950     -21.1146100   156.8097000   
310000000     -7.2340860    -93.9593100   23.5546900    123.0559000   -30.8938800   3.5585640     -21.1647800   156.2805000   
315000000     -7.2194310    -95.1332500   23.5205600    122.2212000   -30.8648000   3.3861240     -21.2061700   155.6363000   
320000000     -7.2054070    -96.3108100   23.4876100    121.3889000   -30.8327700   3.2259520     -21.2516000   155.0241000   
325000000     -7.1877880    -97.4717700   23.4540000    120.5662000   -30.8022800   3.0556200     -21.2900200   154.4252000   
330000000     -7.1658710    -98.6441300   23.4197000    119.7110000   -30.7717800   2.9077460     -21.3343500   153.8270000   
335000000     -7.1502820    -99.7989800   23.3863100    118.8869000   -30.7389300   2.7188690     -21.3779700   153.2915000   
340000000     -7.1348410    -100.9213000  23.3510600    118.0631000   -30.7071800   2.5541690     -21.4314900   152.6809000   
345000000     -7.1152630    -102.0526000  23.3178000    117.2384000   -30.6745100   2.3877700     -21.4919400   152.1424000   
350000000     -7.1007500    -103.2214000  23.2836600    116.3979000   -30.6467000   2.2055370     -21.5137000   151.5892000   
355000000     -7.0881640    -104.3194000  23.2474000    115.5954000   -30.6102900   2.0202800     -21.5780800   151.0289000   
360000000     -7.0690650    -105.4159000  23.2133900    114.7904000   -30.5779100   1.8589410     -21.6308800   150.5302000   
365000000     -7.0612330    -106.5257000  23.1776800    113.9831000   -30.5489100   1.6705680     -21.6763400   149.9164000   
370000000     -7.0459210    -107.6499000  23.1412400    113.1645000   -30.5153000   1.4879900     -21.7232600   149.3766000   
375000000     -7.0314180    -108.7044000  23.1060200    112.3603000   -30.4827700   1.3158290     -21.7717000   148.8258000   
380000000     -7.0105210    -109.7759000  23.0720500    111.5535000   -30.4503600   1.1313150     -21.8248400   148.3235000   
385000000     -7.0015390    -110.8269000  23.0358500    110.7574000   -30.4196800   0.9504502     -21.8786000   147.7109000   
390000000     -6.9818600    -111.8652000  23.0017900    109.9532000   -30.3864900   0.7779535     -21.9334600   147.2028000   
395000000     -6.9704230    -112.9047000  22.9648700    109.1645000   -30.3529900   0.5902842     -21.9855700   146.6026000   
400000000     -6.9564180    -113.9713000  22.9294500    108.3620000   -30.3207800   0.3966559     -22.0413000   146.1382000   
405000000     -6.9412060    -114.9760000  22.8927300    107.5791000   -30.2880800   0.2211077     -22.1050900   145.5374000   
410000000     -6.9301460    -116.0217000  22.8553400    106.7888000   -30.2553900   0.0174871     -22.1439000   145.0618000   
415000000     -6.9149200    -117.0315000  22.8181600    106.0122000   -30.2228000   -0.1657656    -22.2110200   144.4818000   
420000000     -6.9048610    -118.0133000  22.7821200    105.2280000   -30.1878600   -0.3617496    -22.2741700   143.9205000   
425000000     -6.8923560    -119.0108000  22.7474500    104.4491000   -30.1573900   -0.5612546    -22.3362100   143.5094000   
430000000     -6.8804670    -119.9598000  22.7114400    103.6784000   -30.1225800   -0.7499695    -22.4099600   143.0231000   
435000000     -6.8709770    -120.9479000  22.6741900    102.9040000   -30.0920500   -0.9444415    -22.4683500   142.5285000   
440000000     -6.8592600    -121.9229000  22.6360600    102.1392000   -30.0583600   -1.1432750    -22.5342500   142.0651000   
445000000     -6.8506040    -122.8826000  22.5986500    101.3737000   -30.0253300   -1.3500750    -22.5953400   141.6266000   
450000000     -6.8380570    -123.8494000  22.5608400    100.6157000   -29.9929800   -1.5569470    -22.6628700   141.1460000   
455000000     -6.8278690    -124.8015000  22.5232700    99.8494400    -29.9598200   -1.7443760    -22.7254400   140.7418000   
460000000     -6.8228200    -125.7125000  22.4857700    99.0950100    -29.9290300   -1.9586310    -22.7942100   140.2636000   
465000000     -6.8135070    -126.6605000  22.4480200    98.3364400    -29.8938400   -2.1565240    -22.8650600   139.8690000   
470000000     -6.8068620    -127.5821000  22.4115500    97.5861100    -29.8621800   -2.3566750    -22.9345800   139.4771000   
475000000     -6.7950350    -128.5004000  22.3749600    96.8334900    -29.8287000   -2.5683470    -23.0134400   139.1308000   
480000000     -6.7847790    -129.4199000  22.3366800    96.0880500    -29.7951400   -2.7755740    -23.0890000   138.6816000   
485000000     -6.7742230    -130.3250000  22.2994300    95.3422800    -29.7636400   -2.9874600    -23.1652400   138.3258000   
490000000     -6.7714000    -131.2336000  22.2605600    94.6036800    -29.7308600   -3.2104110    -23.2324600   137.8532000   
495000000     -6.7555200    -132.1327000  22.2234400    93.8601800    -29.6983500   -3.4174450    -23.3135000   137.5352000   
500000000     -6.7515120    -133.0020000  22.1859700    93.1320000    -29.6655900   -3.6395120    -23.3937800   137.1461000   
525000000     -6.7008530    -137.3251000  21.9972900    89.4850300    -29.5040600   -4.7279010    -23.7947500   135.2808000   
550000000     -6.6740430    -141.4831000  21.8127200    85.9009900    -29.3457400   -5.8731360    -24.1759500   133.3892000   
575000000     -6.6323080    -145.6112000  21.6224300    82.4052400    -29.1735000   -7.0198210    -24.6185200   132.0821000   
600000000     -6.6032760    -149.4082000  21.4430300    78.9183900    -29.0070100   -8.1787610    -25.0488400   130.7183000   
625000000     -6.5723470    -153.1588000  21.2580800    75.4895100    -28.8432100   -9.4052680    -25.5283000   129.5443000   
650000000     -6.5533200    -156.8898000  21.0759000    72.1032500    -28.6803100   -10.7063700   -25.9838800   128.4327000   
675000000     -6.5316660    -160.5846000  20.8933400    68.7264300    -28.5149500   -12.0368400   -26.4699600   127.4705000   
700000000     -6.5023370    -164.2695000  20.7041100    65.3707200    -28.3551300   -13.4329800   -26.9760400   126.3736000   
725000000     -6.5612620    -168.0015000  20.4964300    62.1654900    -28.2308200   -14.8674200   -27.8054900   124.5277000   
750000000     -6.6345960    -170.5632000  20.3404400    59.3084900    -28.0758400   -15.8880000   -28.8163700   127.7019000   
775000000     -6.5818920    -173.5625000  20.1925300    56.0446500    -27.8870400   -17.3083400   -29.2320500   129.1009000   
800000000     -6.5559010    -176.7906000  20.0233100    52.8186700    -27.7275100   -18.7938500   -29.7837100   130.1403000   
825000000     -6.5575320    -179.8358000  19.8566800    49.6648000    -27.5701100   -20.3062600   -30.4156700   131.8643000   
850000000     -6.5628770    177.1389000   19.6896500    46.5634800    -27.4166300   -21.7893800   -31.1315800   134.2602000   
875000000     -6.5649310    174.1384000   19.5203500    43.5002700    -27.2638400   -23.3639600   -31.7693900   137.3653000   
900000000     -6.5806920    171.2659000   19.3575100    40.4620400    -27.1153600   -24.9248000   -32.5084300   142.0392000   
925000000     -6.5858770    168.4926000   19.1959500    37.4397200    -26.9699800   -26.4609500   -33.1349300   147.2933000   
950000000     -6.6079380    165.6991000   19.0348300    34.4569200    -26.8270700   -28.0603100   -33.6443000   154.7291000   
975000000     -6.6148380    162.9837000   18.8771900    31.4802300    -26.6831900   -29.6508500   -33.8051300   162.3490000   
1000000000    -6.6383890    160.2473000   18.7182400    28.5360400    -26.5437500   -31.3001000   -33.8159800   170.2944000   
1025000000    -6.6667170    157.6320000   18.5615300    25.5994800    -26.4120800   -32.9459400   -33.5918800   178.2103000   
1050000000    -6.6840090    155.0284000   18.4043300    22.6723300    -26.2753800   -34.6381000   -33.1075800   -174.0908000  
1075000000    -6.6908010    152.4541000   18.2463200    19.7827400    -26.1473400   -36.3278300   -32.3383500   -166.4306000  
1100000000    -6.7152140    149.8198000   18.0890000    16.8666500    -26.0232400   -38.0186200   -31.2834200   -160.4661000  
1125000000    -6.7225380    147.0859000   17.9182800    14.0121700    -25.9144900   -39.7384100   -30.0506100   -155.4778000  
1150000000    -6.7306730    144.2521000   17.7363800    11.2689800    -25.8239800   -41.3558500   -28.4561100   -152.8340000  
1175000000    -6.7915740    141.2164000   17.5473900    8.8516800     -25.7296300   -42.6266500   -26.7211200   -155.4688000  
1200000000    -6.9634200    138.3793000   17.4312200    6.7172710     -25.5608100   -43.7351100   -25.8057000   -163.7651000  
1225000000    -7.1098440    136.4691000   17.3800500    4.1565410     -25.3458000   -45.3488700   -25.9356200   -169.4641000  
1250000000    -7.1816060    134.5108000   17.2980800    1.2695030     -25.1657400   -47.2865800   -26.1299900   -170.1612000  
1275000000    -7.2276300    132.5049000   17.1928400    -1.6474810    -25.0166800   -49.2403700   -26.0523900   -169.5869000  
1300000000    -7.2701550    130.3810000   17.0741400    -4.5193510    -24.8760400   -51.1676600   -25.7887900   -168.6802000  
1325000000    -7.3220100    128.2094000   16.9534000    -7.3396960    -24.7488800   -53.1008200   -25.4163000   -168.0470000  
1350000000    -7.3646060    126.0328000   16.8309600    -10.1312900   -24.6239400   -55.0032900   -24.9553100   -167.7259000  
1375000000    -7.4211360    123.8330000   16.7034600    -12.9046900   -24.5005000   -56.8898700   -24.5170200   -168.1155000  
1400000000    -7.4612850    121.6796000   16.5815000    -15.6484700   -24.3808100   -58.7678200   -24.1042600   -168.5311000  
1425000000    -7.5128580    119.5701000   16.4575300    -18.3628400   -24.2568400   -60.6495000   -23.6738100   -169.1257000  
1450000000    -7.5719100    117.4769000   16.3360400    -21.0551700   -24.1410100   -62.5015600   -23.2759700   -169.8474000  
1475000000    -7.6329320    115.2672000   16.2165000    -23.7293900   -24.0247900   -64.4087400   -22.9041600   -170.8158000  
1500000000    -7.6884290    113.1931000   16.1003200    -26.4131700   -23.9069300   -66.3388400   -22.5274300   -172.0488000  
1525000000    -7.7544830    110.9375000   15.9859300    -29.0708600   -23.7892700   -68.2615500   -22.1601400   -173.2436000  
1550000000    -7.8104210    108.8952000   15.8711400    -31.7326900   -23.6746700   -70.1602700   -21.8563100   -174.4686000  
1575000000    -7.8727220    106.7599000   15.7610900    -34.3817000   -23.5610600   -72.0935500   -21.5381100   -175.7089000  
1600000000    -7.9437160    104.6784000   15.6537800    -37.0233000   -23.4478200   -74.0351500   -21.1611700   -177.1727000  
1625000000    -8.0138970    102.4872000   15.5434700    -39.6519200   -23.3385400   -76.0019100   -20.8566300   -178.7240000  
1650000000    -8.0732520    100.4829000   15.4378800    -42.2653500   -23.2301800   -77.9442400   -20.5703100   179.9488000   
1675000000    -8.1489760    98.2956200    15.3299900    -44.8835700   -23.1203700   -79.9350100   -20.2695500   178.3609000   
1700000000    -8.2329930    96.2703900    15.2247400    -47.5195300   -23.0200000   -81.9190200   -19.9962400   176.5503000   
1725000000    -8.3008520    94.1223200    15.1209300    -50.1167900   -22.9137100   -83.8849000   -19.7326700   175.0740000   
1750000000    -8.3848710    91.9740900    15.0192300    -52.6796200   -22.8084100   -85.8720200   -19.4264900   173.4685000   
1775000000    -8.4643300    89.8810700    14.9185800    -55.2709800   -22.7113100   -87.8582500   -19.1613400   171.7278000   
1800000000    -8.5583130    87.8707700    14.8219300    -57.8538100   -22.6098000   -89.8139300   -18.9133000   169.6152000   
1825000000    -8.6438420    85.8330700    14.7256600    -60.4263400   -22.5049300   -91.8100100   -18.6742200   167.6952000   
