!Mini-Circuits Lab.;
!S-parameters;
!Model:ZX60-83LN-S+, Unit1;
!Run:CE4530; Date Code:1622;
!Fixture: N/R, Temperature: 25°C;
!Connection: Port1 to Input, Port2 to Output;
!Tested with PNA-X Network Analyzer AG N5242A, S/N74314,Cal.Due:02/05/2017;
# MHZ S DB R 50
!Frequency        S11 dB  S11 DEG   S21 dB  S21 DEG   S12 dB  S12 DEG   S22 dB  S22 DEG
  10.0000     -2.905015E-002 -3.561158E+001 -6.433720E+001  9.036565E+001 -5.976043E+001 -4.627442E+001 -1.542491E-002 -3.556490E+001
  11.0000     -1.542781E-002 -3.910337E+001 -5.496400E+001  8.945280E+001 -7.808029E+001 -1.205456E+002 -2.829672E-002 -3.886544E+001
  12.0000     -1.513814E-002 -4.249625E+001 -5.272168E+001  9.643963E+001 -6.805336E+001  1.291237E+002 -4.014263E-002 -4.222092E+001
  13.0000     -2.338398E-002 -4.568156E+001 -4.847325E+001  9.777890E+001 -7.181367E+001 -1.271053E+002 -5.660638E-002 -4.560817E+001
  14.0000     -2.928108E-002 -4.895501E+001 -4.541496E+001  9.713742E+001 -6.908539E+001  1.685373E+002 -6.262598E-002 -4.882645E+001
  15.0000     -3.342596E-002 -5.218198E+001 -4.332693E+001  9.660652E+001 -8.369035E+001 -5.540806E+001 -8.817618E-002 -5.199685E+001
  16.0000     -3.576947E-002 -5.527668E+001 -4.058456E+001  9.706089E+001 -6.562814E+001  1.681850E+002 -9.761232E-002 -5.502522E+001
  17.0000     -4.693232E-002 -5.827979E+001 -3.860021E+001  9.008601E+001 -6.711791E+001  1.646878E+002 -1.100240E-001 -5.811386E+001
  18.0000     -4.297484E-002 -6.128270E+001 -3.653436E+001  8.826745E+001 -6.738152E+001 -1.993801E+001 -1.229726E-001 -6.120680E+001
  19.0000     -4.313694E-002 -6.421220E+001 -3.498818E+001  8.456796E+001 -6.601676E+001  1.408773E+002 -1.423184E-001 -6.412048E+001
  20.0000     -5.002294E-002 -6.711651E+001 -3.338321E+001  8.301680E+001 -6.829137E+001  1.423891E+002 -1.695540E-001 -6.697024E+001
  21.0000     -6.620922E-002 -6.988000E+001 -3.204617E+001  8.018876E+001 -7.284503E+001  1.034003E+002 -1.944503E-001 -6.980168E+001
  22.0000     -7.277246E-002 -7.263495E+001 -3.060510E+001  7.824884E+001 -7.474397E+001 -1.772601E+002 -2.221856E-001 -7.250900E+001
  23.0000     -7.404666E-002 -7.529882E+001 -2.935459E+001  7.575146E+001 -7.331660E+001  1.242069E+002 -2.395746E-001 -7.521550E+001
  24.0000     -8.693633E-002 -7.801493E+001 -2.825792E+001  7.360549E+001 -6.546275E+001 -7.751640E+001 -2.567406E-001 -7.781328E+001
  25.0000     -9.324155E-002 -8.054898E+001 -2.705382E+001  7.071248E+001 -6.572452E+001  2.170970E+000 -2.731380E-001 -8.026858E+001
  26.0000     -9.559544E-002 -8.300501E+001 -2.588498E+001  6.819153E+001 -7.685993E+001 -8.991751E+001 -3.117914E-001 -8.278062E+001
  27.0000     -1.057347E-001 -8.543011E+001 -2.500042E+001  6.628531E+001 -7.578616E+001 -1.399969E+002 -3.253858E-001 -8.520477E+001
  28.0000     -1.113201E-001 -8.778822E+001 -2.402089E+001  6.427188E+001 -7.223749E+001  1.520297E+002 -3.442396E-001 -8.753499E+001
  29.0000     -1.133177E-001 -9.010151E+001 -2.312193E+001  6.177216E+001 -7.091686E+001 -1.743454E+002 -3.608686E-001 -8.982272E+001
  30.0000     -1.184774E-001 -9.243143E+001 -2.230382E+001  5.983972E+001 -7.059434E+001 -6.962425E+001 -3.892298E-001 -9.203789E+001
  31.0000     -1.314818E-001 -9.457610E+001 -2.144668E+001  5.787473E+001 -7.217045E+001  1.789698E+002 -4.178078E-001 -9.422266E+001
  32.0000     -1.383428E-001 -9.669610E+001 -2.064522E+001  5.588711E+001 -7.083744E+001 -1.191877E+002 -4.400087E-001 -9.627738E+001
  33.0000     -1.422221E-001 -9.884024E+001 -1.989579E+001  5.388558E+001 -6.834639E+001 -1.064320E+002 -4.634427E-001 -9.837367E+001
  34.0000     -1.484198E-001 -1.009417E+002 -1.918705E+001  5.193396E+001 -7.813271E+001 -1.103737E+002 -4.772180E-001 -1.003239E+002
  35.0000     -1.570711E-001 -1.029052E+002 -1.848643E+001  5.025607E+001 -6.971014E+001 -9.505117E+001 -5.024441E-001 -1.023189E+002
  36.0000     -1.683793E-001 -1.049212E+002 -1.781449E+001  4.852590E+001 -6.893832E+001 -8.617140E+001 -5.180987E-001 -1.042101E+002
  37.0000     -1.717406E-001 -1.068014E+002 -1.718672E+001  4.690706E+001 -7.169301E+001 -1.262950E+002 -5.377653E-001 -1.060407E+002
  38.0000     -1.749155E-001 -1.086588E+002 -1.657246E+001  4.513776E+001 -6.731441E+001 -8.662040E+001 -5.609914E-001 -1.079265E+002
  39.0000     -1.891783E-001 -1.104740E+002 -1.596299E+001  4.359745E+001 -6.927413E+001 -1.259668E+002 -5.749008E-001 -1.096160E+002
  40.0000     -1.922241E-001 -1.122619E+002 -1.541543E+001  4.201884E+001 -6.967621E+001 -1.678110E+002 -5.970792E-001 -1.113754E+002
  41.0000     -2.015283E-001 -1.139708E+002 -1.483256E+001  4.053939E+001 -6.289290E+001 -1.202668E+002 -6.119257E-001 -1.130323E+002
  42.0000     -2.128663E-001 -1.157166E+002 -1.430678E+001  3.895732E+001 -6.529285E+001 -1.054575E+002 -6.319301E-001 -1.146509E+002
  43.0000     -2.108258E-001 -1.173530E+002 -1.377931E+001  3.750704E+001 -6.367158E+001 -1.235823E+002 -6.525815E-001 -1.162637E+002
  44.0000     -2.266390E-001 -1.190258E+002 -1.328665E+001  3.607635E+001 -6.427755E+001 -1.245673E+002 -6.683912E-001 -1.178377E+002
  45.0000     -2.255432E-001 -1.205928E+002 -1.278880E+001  3.465343E+001 -6.589109E+001 -1.384301E+002 -6.824510E-001 -1.193278E+002
  46.0000     -2.344934E-001 -1.221624E+002 -1.230207E+001  3.332312E+001 -6.063699E+001 -1.350449E+002 -6.970013E-001 -1.208184E+002
  47.0000     -2.438452E-001 -1.236488E+002 -1.184911E+001  3.197158E+001 -6.157424E+001 -1.288686E+002 -7.174406E-001 -1.222873E+002
  48.0000     -2.446404E-001 -1.251492E+002 -1.139554E+001  3.054617E+001 -6.068150E+001 -1.186626E+002 -7.318585E-001 -1.237100E+002
  49.0000     -2.561123E-001 -1.265915E+002 -1.096450E+001  2.939233E+001 -6.111242E+001 -1.298351E+002 -7.410768E-001 -1.251007E+002
  50.0000     -2.372742E-001 -1.280748E+002 -1.050949E+001  2.801081E+001 -5.828847E+001  8.176902E+001 -7.413169E-001 -1.264373E+002
  51.0000     -2.721859E-001 -1.294568E+002 -1.013658E+001  2.682294E+001 -5.962643E+001 -1.276719E+002 -7.769636E-001 -1.277765E+002
  52.0000     -2.720840E-001 -1.307731E+002 -9.726921E+000  2.565382E+001 -5.892717E+001 -1.382840E+002 -7.859005E-001 -1.290957E+002
  53.0000     -2.781456E-001 -1.321097E+002 -9.323841E+000  2.450810E+001 -5.961198E+001 -1.371221E+002 -8.012777E-001 -1.303462E+002
  54.0000     -2.857352E-001 -1.334522E+002 -8.943994E+000  2.334642E+001 -5.878127E+001 -1.344962E+002 -8.167374E-001 -1.315907E+002
  55.0000     -2.953154E-001 -1.347486E+002 -8.565028E+000  2.219585E+001 -5.786236E+001 -1.269730E+002 -8.245522E-001 -1.328095E+002
  56.0000     -2.993273E-001 -1.359922E+002 -8.201702E+000  2.107677E+001 -5.709624E+001 -1.303796E+002 -8.385384E-001 -1.340008E+002
  57.0000     -3.040491E-001 -1.372421E+002 -7.848595E+000  1.996487E+001 -5.776107E+001 -1.314184E+002 -8.561455E-001 -1.351758E+002
  58.0000     -3.148509E-001 -1.384616E+002 -7.505712E+000  1.888555E+001 -5.531657E+001 -1.344195E+002 -8.682982E-001 -1.363215E+002
  59.0000     -3.179902E-001 -1.396556E+002 -7.157227E+000  1.781176E+001 -5.705173E+001 -1.357524E+002 -8.828702E-001 -1.374802E+002
  60.0000     -3.229094E-001 -1.407949E+002 -6.826687E+000  1.682263E+001 -5.656648E+001 -1.399423E+002 -8.898185E-001 -1.385407E+002
  61.0000     -3.308996E-001 -1.419614E+002 -6.498673E+000  1.575680E+001 -5.484517E+001 -1.431519E+002 -9.026138E-001 -1.396525E+002
  62.0000     -3.406550E-001 -1.431169E+002 -6.177878E+000  1.475721E+001 -5.483345E+001 -1.442202E+002 -9.168062E-001 -1.407281E+002
  63.0000     -3.421527E-001 -1.442698E+002 -5.860411E+000  1.371147E+001 -5.495600E+001 -1.453235E+002 -9.268147E-001 -1.417788E+002
  64.0000     -3.537285E-001 -1.453386E+002 -5.555750E+000  1.278907E+001 -5.377837E+001 -1.480814E+002 -9.392087E-001 -1.427687E+002
  65.0000     -3.580697E-001 -1.464241E+002 -5.255221E+000  1.179473E+001 -5.412844E+001 -1.449604E+002 -9.503784E-001 -1.437907E+002
  66.0000     -3.640465E-001 -1.475085E+002 -4.962215E+000  1.083564E+001 -5.338664E+001 -1.452469E+002 -9.687560E-001 -1.447820E+002
  67.0000     -3.702516E-001 -1.485121E+002 -4.666372E+000  9.929832E+000 -5.390896E+001 -1.461348E+002 -9.738119E-001 -1.457532E+002
  68.0000     -3.787863E-001 -1.495507E+002 -4.386010E+000  9.030210E+000 -5.313404E+001 -1.476019E+002 -9.871592E-001 -1.467388E+002
  69.0000     -3.822856E-001 -1.505590E+002 -4.099273E+000  8.111925E+000 -5.267080E+001 -1.532144E+002 -9.951544E-001 -1.476761E+002
  70.0000     -3.908206E-001 -1.515595E+002 -3.830231E+000  7.207370E+000 -5.295528E+001 -1.521477E+002 -1.010885E+000 -1.486060E+002
  71.0000     -4.003904E-001 -1.525486E+002 -3.563010E+000  6.337546E+000 -5.179036E+001 -1.533860E+002 -1.019408E+000 -1.495150E+002
  72.0000     -4.000459E-001 -1.535088E+002 -3.293616E+000  5.480950E+000 -5.194532E+001 -1.559035E+002 -1.032812E+000 -1.504133E+002
  73.0000     -4.074091E-001 -1.544610E+002 -3.031646E+000  4.609288E+000 -5.167913E+001 -1.533055E+002 -1.040893E+000 -1.512897E+002
  74.0000     -4.141837E-001 -1.554053E+002 -2.782267E+000  3.730135E+000 -5.100449E+001 -1.561600E+002 -1.052967E+000 -1.521808E+002
  75.0000     -4.228534E-001 -1.563242E+002 -2.531985E+000  2.921320E+000 -5.117941E+001 -1.571149E+002 -1.063614E+000 -1.530553E+002
  76.0000     -4.304469E-001 -1.572368E+002 -2.279894E+000  2.102684E+000 -5.067836E+001 -1.570764E+002 -1.072451E+000 -1.538854E+002
  77.0000     -4.367250E-001 -1.581474E+002 -2.039969E+000  1.262751E+000 -5.057641E+001 -1.578622E+002 -1.083972E+000 -1.547280E+002
  78.0000     -4.413015E-001 -1.590627E+002 -1.800163E+000  4.469117E-001 -5.023284E+001 -1.576670E+002 -1.094879E+000 -1.555166E+002
  79.0000     -4.520226E-001 -1.599360E+002 -1.563430E+000 -3.720180E-001 -5.004549E+001 -1.608430E+002 -1.102337E+000 -1.563638E+002
  80.0000     -4.515405E-001 -1.607951E+002 -1.328060E+000 -1.125911E+000 -4.952702E+001 -1.597114E+002 -1.114464E+000 -1.571423E+002
  81.0000     -4.605386E-001 -1.616439E+002 -1.099645E+000 -1.936329E+000 -4.973878E+001 -1.623757E+002 -1.123825E+000 -1.579520E+002
  82.0000     -4.677607E-001 -1.625092E+002 -8.760812E-001 -2.694627E+000 -4.930200E+001 -1.625023E+002 -1.134202E+000 -1.586977E+002
  83.0000     -4.738994E-001 -1.633620E+002 -6.541834E-001 -3.499759E+000 -4.903835E+001 -1.646516E+002 -1.145984E+000 -1.595102E+002
  84.0000     -4.826797E-001 -1.641661E+002 -4.415781E-001 -4.230424E+000 -4.862806E+001 -1.635671E+002 -1.154319E+000 -1.602541E+002
  85.0000     -4.896441E-001 -1.649970E+002 -2.219207E-001 -4.980714E+000 -4.841270E+001 -1.666045E+002 -1.164500E+000 -1.609993E+002
  86.0000     -4.943218E-001 -1.657931E+002 -7.860843E-003 -5.726594E+000 -4.822172E+001 -1.685638E+002 -1.174407E+000 -1.617518E+002
  87.0000     -4.992754E-001 -1.665945E+002  2.006964E-001 -6.453278E+000 -4.822060E+001 -1.675641E+002 -1.186802E+000 -1.624614E+002
  88.0000     -5.106363E-001 -1.673932E+002  4.053388E-001 -7.185579E+000 -4.772181E+001 -1.687719E+002 -1.194796E+000 -1.631878E+002
  89.0000     -5.163235E-001 -1.681546E+002  6.087134E-001 -7.914864E+000 -4.769410E+001 -1.686564E+002 -1.205371E+000 -1.639160E+002
  90.0000     -5.215416E-001 -1.689155E+002  8.130987E-001 -8.604203E+000 -4.788438E+001 -1.713801E+002 -1.216928E+000 -1.646021E+002
  91.0000     -5.285114E-001 -1.697229E+002  1.008896E+000 -9.322612E+000 -4.732164E+001 -1.707209E+002 -1.226655E+000 -1.653040E+002
  92.0000     -5.375132E-001 -1.704585E+002  1.205820E+000 -1.003769E+001 -4.723795E+001 -1.715003E+002 -1.233519E+000 -1.660047E+002
  93.0000     -5.425009E-001 -1.712225E+002  1.400459E+000 -1.071404E+001 -4.668401E+001 -1.732218E+002 -1.245811E+000 -1.666836E+002
  94.0000     -5.507193E-001 -1.719564E+002  1.589043E+000 -1.142453E+001 -4.673037E+001 -1.717437E+002 -1.257782E+000 -1.673584E+002
  95.0000     -5.595995E-001 -1.726974E+002  1.778071E+000 -1.208626E+001 -4.654145E+001 -1.747504E+002 -1.269219E+000 -1.680136E+002
  96.0000     -5.651620E-001 -1.734274E+002  1.964323E+000 -1.278880E+001 -4.612997E+001 -1.745198E+002 -1.279222E+000 -1.686920E+002
  97.0000     -5.706788E-001 -1.741463E+002  2.145402E+000 -1.346643E+001 -4.627343E+001 -1.740202E+002 -1.289177E+000 -1.693575E+002
  98.0000     -5.786164E-001 -1.748647E+002  2.328330E+000 -1.411615E+001 -4.588337E+001 -1.747492E+002 -1.300974E+000 -1.699927E+002
  99.0000     -5.856951E-001 -1.755798E+002  2.503917E+000 -1.479276E+001 -4.572480E+001 -1.779379E+002 -1.315316E+000 -1.706449E+002
 100.0000     -5.947419E-001 -1.762724E+002  2.678416E+000 -1.542272E+001 -4.530834E+001 -1.792597E+002 -1.326399E+000 -1.712607E+002
 101.0000     -6.021869E-001 -1.769763E+002  2.856854E+000 -1.608905E+001 -4.533669E+001 -1.779745E+002 -1.333687E+000 -1.718901E+002
 102.0000     -6.084842E-001 -1.776683E+002  3.027590E+000 -1.673618E+001 -4.513146E+001 -1.798150E+002 -1.346384E+000 -1.725268E+002
 103.0000     -6.165007E-001 -1.783429E+002  3.195926E+000 -1.739189E+001 -4.491438E+001 -1.796978E+002 -1.356585E+000 -1.731485E+002
 104.0000     -6.255869E-001 -1.790526E+002  3.367040E+000 -1.803350E+001 -4.485487E+001  1.797590E+002 -1.367961E+000 -1.737469E+002
 105.0000     -6.327879E-001 -1.797157E+002  3.529841E+000 -1.866498E+001 -4.461764E+001  1.785128E+002 -1.380170E+000 -1.743553E+002
 106.0000     -6.413450E-001  1.796065E+002  3.699321E+000 -1.930417E+001 -4.438657E+001  1.779808E+002 -1.387800E+000 -1.749657E+002
 107.0000     -6.516937E-001  1.789500E+002  3.854690E+000 -1.990788E+001 -4.432423E+001  1.778797E+002 -1.404134E+000 -1.755419E+002
 108.0000     -6.558592E-001  1.782746E+002  4.023222E+000 -2.056559E+001 -4.424542E+001  1.762438E+002 -1.411334E+000 -1.761562E+002
 109.0000     -6.653041E-001  1.776332E+002  4.181132E+000 -2.115120E+001 -4.401588E+001  1.763049E+002 -1.422692E+000 -1.767237E+002
 110.0000     -6.744500E-001  1.769737E+002  4.336269E+000 -2.177611E+001 -4.375757E+001  1.745397E+002 -1.434596E+000 -1.773199E+002
 111.0000     -6.825169E-001  1.763388E+002  4.491939E+000 -2.238175E+001 -4.364160E+001  1.731175E+002 -1.447526E+000 -1.778922E+002
 112.0000     -6.917044E-001  1.756716E+002  4.642690E+000 -2.300473E+001 -4.317744E+001  1.740454E+002 -1.459755E+000 -1.784634E+002
 113.0000     -6.989233E-001  1.750363E+002  4.795760E+000 -2.362628E+001 -4.321036E+001  1.741670E+002 -1.470567E+000 -1.790486E+002
 114.0000     -7.062203E-001  1.744326E+002  4.946189E+000 -2.420076E+001 -4.315500E+001  1.726294E+002 -1.483994E+000 -1.796050E+002
 115.0000     -7.187662E-001  1.737809E+002  5.098895E+000 -2.480974E+001 -4.299064E+001  1.708430E+002 -1.491515E+000  1.798534E+002
 116.0000     -7.270108E-001  1.731554E+002  5.241420E+000 -2.543174E+001 -4.281104E+001  1.705947E+002 -1.503121E+000  1.792906E+002
 117.0000     -7.335290E-001  1.725383E+002  5.389628E+000 -2.600476E+001 -4.266285E+001  1.708157E+002 -1.515635E+000  1.787355E+002
 118.0000     -7.440268E-001  1.719081E+002  5.534257E+000 -2.659678E+001 -4.263807E+001  1.702351E+002 -1.527736E+000  1.781922E+002
 119.0000     -7.513621E-001  1.713110E+002  5.674492E+000 -2.714711E+001 -4.237470E+001  1.692592E+002 -1.543629E+000  1.776623E+002
 120.0000     -7.596213E-001  1.706696E+002  5.819781E+000 -2.777802E+001 -4.233261E+001  1.678379E+002 -1.553280E+000  1.771228E+002
 121.0000     -7.720982E-001  1.700717E+002  5.957658E+000 -2.835864E+001 -4.205141E+001  1.667596E+002 -1.566809E+000  1.765712E+002
 122.0000     -7.794477E-001  1.694674E+002  6.094958E+000 -2.892381E+001 -4.193901E+001  1.674834E+002 -1.577486E+000  1.760471E+002
 123.0000     -7.875134E-001  1.688650E+002  6.234306E+000 -2.950175E+001 -4.185306E+001  1.659994E+002 -1.590219E+000  1.755215E+002
 124.0000     -8.001587E-001  1.682709E+002  6.370350E+000 -3.006650E+001 -4.173310E+001  1.664518E+002 -1.602812E+000  1.750034E+002
 125.0000     -8.046952E-001  1.676611E+002  6.501531E+000 -3.063032E+001 -4.155613E+001  1.650724E+002 -1.617291E+000  1.744895E+002
 126.0000     -8.186259E-001  1.670863E+002  6.631264E+000 -3.119344E+001 -4.152115E+001  1.646863E+002 -1.631204E+000  1.739637E+002
 127.0000     -8.291681E-001  1.664837E+002  6.767614E+000 -3.179001E+001 -4.134414E+001  1.638637E+002 -1.641985E+000  1.734472E+002
 128.0000     -8.365154E-001  1.659130E+002  6.898239E+000 -3.232119E+001 -4.114643E+001  1.632320E+002 -1.658004E+000  1.729201E+002
 129.0000     -8.481722E-001  1.653368E+002  7.028719E+000 -3.286657E+001 -4.108722E+001  1.628329E+002 -1.666983E+000  1.724295E+002
 130.0000     -8.584151E-001  1.647620E+002  7.153111E+000 -3.342484E+001 -4.083715E+001  1.619816E+002 -1.683132E+000  1.719252E+002
 131.0000     -8.687508E-001  1.641641E+002  7.279412E+000 -3.401464E+001 -4.071059E+001  1.613408E+002 -1.695408E+000  1.714120E+002
 132.0000     -8.794585E-001  1.636010E+002  7.406708E+000 -3.456741E+001 -4.065444E+001  1.606796E+002 -1.708152E+000  1.709039E+002
 133.0000     -8.900261E-001  1.630238E+002  7.528673E+000 -3.511435E+001 -4.046269E+001  1.598324E+002 -1.724004E+000  1.704225E+002
 134.0000     -8.990353E-001  1.624555E+002  7.655031E+000 -3.565009E+001 -4.039735E+001  1.597383E+002 -1.736723E+000  1.699110E+002
 135.0000     -9.118524E-001  1.618893E+002  7.776392E+000 -3.618961E+001 -4.018073E+001  1.590961E+002 -1.748186E+000  1.694397E+002
 136.0000     -9.245294E-001  1.613185E+002  7.892452E+000 -3.674891E+001 -4.005414E+001  1.584953E+002 -1.764435E+000  1.689482E+002
 137.0000     -9.331111E-001  1.607669E+002  8.018073E+000 -3.729157E+001 -3.997812E+001  1.581958E+002 -1.777990E+000  1.684664E+002
 138.0000     -9.466364E-001  1.602146E+002  8.131298E+000 -3.783482E+001 -3.978329E+001  1.572007E+002 -1.792682E+000  1.679770E+002
 139.0000     -9.564877E-001  1.596378E+002  8.249778E+000 -3.838974E+001 -3.971950E+001  1.566748E+002 -1.808147E+000  1.674980E+002
 140.0000     -9.698691E-001  1.590605E+002  8.366266E+000 -3.897112E+001 -3.955664E+001  1.557588E+002 -1.821210E+000  1.670153E+002
 141.0000     -9.794513E-001  1.585287E+002  8.480042E+000 -3.947190E+001 -3.952643E+001  1.554818E+002 -1.836756E+000  1.665421E+002
 142.0000     -9.891981E-001  1.579808E+002  8.598679E+000 -3.998518E+001 -3.932966E+001  1.548697E+002 -1.852985E+000  1.660835E+002
 143.0000     -1.002364E+000  1.574472E+002  8.705759E+000 -4.050329E+001 -3.929316E+001  1.544220E+002 -1.867929E+000  1.655997E+002
 144.0000     -1.015622E+000  1.568892E+002  8.819386E+000 -4.103757E+001 -3.906643E+001  1.531325E+002 -1.881269E+000  1.651456E+002
 145.0000     -1.027366E+000  1.563445E+002  8.930759E+000 -4.157166E+001 -3.895682E+001  1.527920E+002 -1.898033E+000  1.646752E+002
 146.0000     -1.039065E+000  1.558130E+002  9.039080E+000 -4.207942E+001 -3.883715E+001  1.524293E+002 -1.913714E+000  1.642169E+002
 147.0000     -1.051676E+000  1.552680E+002  9.151299E+000 -4.258463E+001 -3.872645E+001  1.519452E+002 -1.927237E+000  1.637667E+002
 148.0000     -1.065708E+000  1.547325E+002  9.253805E+000 -4.314702E+001 -3.867020E+001  1.521635E+002 -1.945056E+000  1.632925E+002
 149.0000     -1.077338E+000  1.541942E+002  9.364285E+000 -4.366087E+001 -3.860354E+001  1.510545E+002 -1.961289E+000  1.628514E+002
 150.0000     -1.091086E+000  1.536656E+002  9.466066E+000 -4.419005E+001 -3.831405E+001  1.506204E+002 -1.978228E+000  1.623636E+002
 151.0000     -1.102466E+000  1.531190E+002  9.576271E+000 -4.470424E+001 -3.833962E+001  1.501052E+002 -1.991583E+000  1.619228E+002
 152.0000     -1.116313E+000  1.525929E+002  9.676263E+000 -4.522896E+001 -3.818209E+001  1.494086E+002 -2.010637E+000  1.614713E+002
 153.0000     -1.128864E+000  1.520747E+002  9.780499E+000 -4.573079E+001 -3.813889E+001  1.490551E+002 -2.026503E+000  1.610335E+002
 154.0000     -1.142418E+000  1.515363E+002  9.882263E+000 -4.624081E+001 -3.800161E+001  1.485997E+002 -2.043650E+000  1.605921E+002
