!Mini-Circuits Lab.;
!S-parameters;
!Model:ZX60-83LN-S+, Unit2;
!Run:CE4530; Date Code:1622;
!Fixture: N/R, Temperature: 25°C;
!Connection: Port1 to Input, Port2 to Output;
!Tested with PNA-X Network Analyzer AG N5242A, S/N74314,Cal.Due:02/05/2017;
# MHZ S DB R 50
!Frequency        S11 dB  S11 DEG   S21 dB  S21 DEG   S12 dB  S12 DEG   S22 dB  S22 DEG
  10.0000     -2.159343E-002 -3.609487E+001 -5.817739E+001  1.209377E+002 -6.030958E+001  1.165718E+002 -1.594826E-002 -3.556784E+001
  11.0000     -1.172037E-002 -3.960421E+001 -5.734253E+001  1.069810E+002 -6.813952E+001  1.211564E+002 -3.415183E-002 -3.888640E+001
  12.0000     -1.198108E-002 -4.304900E+001 -5.092630E+001  9.975790E+001 -7.492302E+001  6.359722E+001 -3.196238E-002 -4.223347E+001
  13.0000     -2.230198E-002 -4.626579E+001 -4.718561E+001  9.842239E+001 -6.793124E+001  9.967194E+001 -5.184934E-002 -4.559331E+001
  14.0000     -2.730307E-002 -4.957001E+001 -4.422997E+001  9.464579E+001 -6.795251E+001 -1.779454E+002 -5.818536E-002 -4.884256E+001
  15.0000     -2.684468E-002 -5.282211E+001 -4.246930E+001  9.585786E+001 -7.236662E+001 -1.501473E+002 -8.907151E-002 -5.194209E+001
  16.0000     -3.637531E-002 -5.594263E+001 -4.018233E+001  9.610685E+001 -6.337696E+001  1.333209E+002 -1.020320E-001 -5.500690E+001
  17.0000     -4.584972E-002 -5.900016E+001 -3.789906E+001  9.017570E+001 -6.758424E+001 -1.478526E+002 -1.087454E-001 -5.808191E+001
  18.0000     -4.591693E-002 -6.204526E+001 -3.603501E+001  8.814570E+001 -6.828019E+001  1.394334E+002 -1.222514E-001 -6.117740E+001
  19.0000     -4.294420E-002 -6.493969E+001 -3.426635E+001  8.498157E+001 -7.203575E+001 -3.222617E+001 -1.381927E-001 -6.412207E+001
  20.0000     -5.328142E-002 -6.792739E+001 -3.274160E+001  8.304483E+001 -6.904700E+001 -1.138748E+002 -1.653342E-001 -6.693975E+001
  21.0000     -7.129638E-002 -7.066514E+001 -3.137295E+001  7.881017E+001 -6.405109E+001  1.656414E+002 -1.897295E-001 -6.973367E+001
  22.0000     -7.449459E-002 -7.343354E+001 -2.998664E+001  7.667236E+001 -6.866971E+001 -1.158699E+002 -2.167384E-001 -7.243975E+001
  23.0000     -7.597828E-002 -7.610094E+001 -2.879375E+001  7.464965E+001 -7.885191E+001  7.539729E+001 -2.362778E-001 -7.514392E+001
  24.0000     -8.744065E-002 -7.881837E+001 -2.758814E+001  7.202734E+001 -7.884991E+001 -4.487820E+001 -2.562628E-001 -7.770373E+001
  25.0000     -9.771372E-002 -8.138783E+001 -2.643275E+001  6.978166E+001 -6.777452E+001  1.611055E+002 -2.701859E-001 -8.019113E+001
  26.0000     -9.456075E-002 -8.387374E+001 -2.540313E+001  6.740748E+001 -7.685561E+001 -1.329530E+002 -3.016222E-001 -8.267921E+001
  27.0000     -1.053549E-001 -8.630383E+001 -2.444142E+001  6.494362E+001 -8.823020E+001 -1.444502E+002 -3.168920E-001 -8.509334E+001
  28.0000     -1.116703E-001 -8.866556E+001 -2.350507E+001  6.269168E+001 -7.861618E+001 -9.394673E+001 -3.391525E-001 -8.737302E+001
  29.0000     -1.158054E-001 -9.095339E+001 -2.258881E+001  6.077117E+001 -7.749333E+001  8.167335E+001 -3.566014E-001 -8.969185E+001
  30.0000     -1.198471E-001 -9.327529E+001 -2.169387E+001  5.873704E+001 -8.246883E+001  1.213629E+002 -3.797902E-001 -9.186726E+001
  31.0000     -1.332794E-001 -9.546059E+001 -2.094570E+001  5.676020E+001 -7.028490E+001 -1.203594E+002 -4.085693E-001 -9.403963E+001
  32.0000     -1.405489E-001 -9.756039E+001 -2.012790E+001  5.475062E+001 -7.335578E+001 -4.756237E+001 -4.306971E-001 -9.610062E+001
  33.0000     -1.426704E-001 -9.972475E+001 -1.942165E+001  5.297410E+001 -6.825332E+001 -1.649270E+002 -4.497343E-001 -9.816283E+001
  34.0000     -1.514206E-001 -1.018007E+002 -1.868017E+001  5.112291E+001 -7.461009E+001 -4.933465E+001 -4.623551E-001 -1.001083E+002
  35.0000     -1.567932E-001 -1.037825E+002 -1.799260E+001  4.930490E+001 -7.407187E+001 -1.175784E+002 -4.908072E-001 -1.020866E+002
  36.0000     -1.721818E-001 -1.057759E+002 -1.732451E+001  4.750861E+001 -7.398690E+001 -1.279370E+002 -5.051426E-001 -1.039940E+002
  37.0000     -1.758835E-001 -1.076714E+002 -1.669225E+001  4.599498E+001 -7.084954E+001 -1.225765E+002 -5.244961E-001 -1.058010E+002
  38.0000     -1.783158E-001 -1.095308E+002 -1.608097E+001  4.420605E+001 -7.057350E+001 -1.000447E+002 -5.452021E-001 -1.076550E+002
  39.0000     -1.918614E-001 -1.113196E+002 -1.547021E+001  4.254005E+001 -6.717699E+001 -1.296835E+002 -5.561113E-001 -1.093614E+002
  40.0000     -1.958428E-001 -1.131316E+002 -1.491594E+001  4.107264E+001 -6.636911E+001 -1.041832E+002 -5.779583E-001 -1.110923E+002
  41.0000     -2.036033E-001 -1.148178E+002 -1.435243E+001  3.956142E+001 -6.675936E+001 -1.180171E+002 -5.918185E-001 -1.127400E+002
  42.0000     -2.149652E-001 -1.165755E+002 -1.382561E+001  3.805144E+001 -6.620869E+001 -1.248164E+002 -6.115907E-001 -1.143660E+002
  43.0000     -2.126102E-001 -1.181991E+002 -1.331000E+001  3.664377E+001 -6.544795E+001 -1.366960E+002 -6.331935E-001 -1.159602E+002
  44.0000     -2.278416E-001 -1.198618E+002 -1.280761E+001  3.525669E+001 -6.487413E+001 -1.292080E+002 -6.451857E-001 -1.175089E+002
  45.0000     -2.280151E-001 -1.214215E+002 -1.232237E+001  3.379091E+001 -6.643588E+001 -1.329821E+002 -6.609037E-001 -1.190175E+002
  46.0000     -2.362291E-001 -1.229951E+002 -1.184584E+001  3.248013E+001 -6.167738E+001 -1.260795E+002 -6.744969E-001 -1.204660E+002
  47.0000     -2.445871E-001 -1.244802E+002 -1.138774E+001  3.118349E+001 -6.191423E+001 -1.378036E+002 -6.946629E-001 -1.219347E+002
  48.0000     -2.461858E-001 -1.259795E+002 -1.093488E+001  2.984409E+001 -6.229540E+001 -1.313000E+002 -7.079557E-001 -1.233695E+002
  49.0000     -2.561421E-001 -1.274041E+002 -1.050137E+001  2.852067E+001 -6.175924E+001 -1.320966E+002 -7.188840E-001 -1.247294E+002
  50.0000     -2.443949E-001 -1.288845E+002 -1.004941E+001  2.726818E+001 -5.225567E+001 -7.050938E+001 -7.227731E-001 -1.261011E+002
  51.0000     -2.733644E-001 -1.302547E+002 -9.673562E+000  2.607680E+001 -6.012183E+001 -1.350601E+002 -7.510808E-001 -1.273816E+002
  52.0000     -2.732491E-001 -1.315835E+002 -9.267986E+000  2.487856E+001 -5.970924E+001 -1.323294E+002 -7.602010E-001 -1.286938E+002
  53.0000     -2.800835E-001 -1.329012E+002 -8.877611E+000  2.370957E+001 -5.953207E+001 -1.312402E+002 -7.753470E-001 -1.299429E+002
  54.0000     -2.877631E-001 -1.342337E+002 -8.492547E+000  2.258575E+001 -5.925880E+001 -1.329293E+002 -7.902992E-001 -1.311773E+002
  55.0000     -2.946756E-001 -1.355343E+002 -8.114942E+000  2.142976E+001 -5.855478E+001 -1.287202E+002 -7.992322E-001 -1.323910E+002
  56.0000     -2.992535E-001 -1.367634E+002 -7.758375E+000  2.030059E+001 -5.720720E+001 -1.392934E+002 -8.091713E-001 -1.335762E+002
  57.0000     -3.044263E-001 -1.379990E+002 -7.402878E+000  1.926046E+001 -5.685209E+001 -1.346245E+002 -8.256604E-001 -1.347319E+002
  58.0000     -3.164199E-001 -1.392263E+002 -7.061206E+000  1.816047E+001 -5.671199E+001 -1.358070E+002 -8.390105E-001 -1.358699E+002
  59.0000     -3.187895E-001 -1.404100E+002 -6.715736E+000  1.706455E+001 -5.639958E+001 -1.481330E+002 -8.545277E-001 -1.370263E+002
  60.0000     -3.262320E-001 -1.415588E+002 -6.380680E+000  1.608038E+001 -5.661113E+001 -1.271435E+002 -8.598870E-001 -1.380696E+002
  61.0000     -3.348608E-001 -1.427006E+002 -6.054100E+000  1.506770E+001 -5.564160E+001 -1.421653E+002 -8.728836E-001 -1.391758E+002
  62.0000     -3.415718E-001 -1.438546E+002 -5.738189E+000  1.405850E+001 -5.512502E+001 -1.406201E+002 -8.864093E-001 -1.402251E+002
  63.0000     -3.445058E-001 -1.450005E+002 -5.417972E+000  1.303284E+001 -5.550543E+001 -1.432678E+002 -8.944830E-001 -1.412653E+002
  64.0000     -3.559849E-001 -1.460558E+002 -5.120153E+000  1.207678E+001 -5.357382E+001 -1.444482E+002 -9.082606E-001 -1.422618E+002
  65.0000     -3.597471E-001 -1.471473E+002 -4.819284E+000  1.113119E+001 -5.385756E+001 -1.481220E+002 -9.186409E-001 -1.432798E+002
  66.0000     -3.658848E-001 -1.482147E+002 -4.523468E+000  1.016888E+001 -5.347390E+001 -1.478536E+002 -9.381250E-001 -1.442545E+002
  67.0000     -3.712625E-001 -1.492267E+002 -4.231956E+000  9.266994E+000 -5.346754E+001 -1.473887E+002 -9.404328E-001 -1.452138E+002
  68.0000     -3.799690E-001 -1.502450E+002 -3.953397E+000  8.359664E+000 -5.312877E+001 -1.447259E+002 -9.533861E-001 -1.461831E+002
  69.0000     -3.842839E-001 -1.512540E+002 -3.666573E+000  7.447521E+000 -5.288818E+001 -1.477929E+002 -9.600452E-001 -1.471262E+002
  70.0000     -3.942184E-001 -1.522638E+002 -3.401392E+000  6.558784E+000 -5.243450E+001 -1.500662E+002 -9.772617E-001 -1.480493E+002
  71.0000     -4.029352E-001 -1.532293E+002 -3.132859E+000  5.668406E+000 -5.312124E+001 -1.550355E+002 -9.870955E-001 -1.489293E+002
  72.0000     -4.020268E-001 -1.541753E+002 -2.867912E+000  4.814727E+000 -5.258024E+001 -1.547242E+002 -9.973212E-001 -1.498244E+002
  73.0000     -4.103991E-001 -1.551444E+002 -2.602809E+000  3.944452E+000 -5.172272E+001 -1.558642E+002 -1.006032E+000 -1.506817E+002
  74.0000     -4.163118E-001 -1.560865E+002 -2.354068E+000  3.103426E+000 -5.171356E+001 -1.592013E+002 -1.019261E+000 -1.515726E+002
  75.0000     -4.247119E-001 -1.569933E+002 -2.103832E+000  2.266681E+000 -5.133681E+001 -1.568304E+002 -1.032271E+000 -1.524253E+002
  76.0000     -4.322558E-001 -1.578945E+002 -1.853767E+000  1.468295E+000 -5.099157E+001 -1.583270E+002 -1.037875E+000 -1.532537E+002
  77.0000     -4.380818E-001 -1.588035E+002 -1.614142E+000  6.147297E-001 -5.064394E+001 -1.571878E+002 -1.049886E+000 -1.540968E+002
  78.0000     -4.436912E-001 -1.597080E+002 -1.377288E+000 -1.816220E-001 -5.068654E+001 -1.593963E+002 -1.060059E+000 -1.548830E+002
  79.0000     -4.533093E-001 -1.605818E+002 -1.139266E+000 -9.922106E-001 -5.013517E+001 -1.605211E+002 -1.068652E+000 -1.557139E+002
  80.0000     -4.548462E-001 -1.614256E+002 -9.061885E-001 -1.744901E+000 -4.967539E+001 -1.603783E+002 -1.081080E+000 -1.564760E+002
  81.0000     -4.636284E-001 -1.622770E+002 -6.760426E-001 -2.547408E+000 -4.974824E+001 -1.617603E+002 -1.088316E+000 -1.572697E+002
  82.0000     -4.710693E-001 -1.631371E+002 -4.524879E-001 -3.316975E+000 -4.988414E+001 -1.631342E+002 -1.098771E+000 -1.580164E+002
  83.0000     -4.766127E-001 -1.639829E+002 -2.329086E-001 -4.104578E+000 -4.990701E+001 -1.618656E+002 -1.112046E+000 -1.588083E+002
  84.0000     -4.872397E-001 -1.647866E+002 -1.693421E-002 -4.831635E+000 -4.918268E+001 -1.649078E+002 -1.119462E+000 -1.595500E+002
  85.0000     -4.907783E-001 -1.655926E+002  1.977823E-001 -5.587041E+000 -4.907455E+001 -1.670834E+002 -1.130929E+000 -1.602864E+002
  86.0000     -4.982517E-001 -1.664010E+002  4.136070E-001 -6.321476E+000 -4.874968E+001 -1.674768E+002 -1.138972E+000 -1.610304E+002
  87.0000     -5.020278E-001 -1.671929E+002  6.225730E-001 -7.051598E+000 -4.836742E+001 -1.677838E+002 -1.151817E+000 -1.617346E+002
  88.0000     -5.131624E-001 -1.679902E+002  8.256905E-001 -7.781730E+000 -4.826693E+001 -1.691068E+002 -1.158712E+000 -1.624526E+002
  89.0000     -5.187339E-001 -1.687624E+002  1.027261E+000 -8.505192E+000 -4.804677E+001 -1.703654E+002 -1.169461E+000 -1.631759E+002
  90.0000     -5.235166E-001 -1.695146E+002  1.230338E+000 -9.184257E+000 -4.817111E+001 -1.723543E+002 -1.181581E+000 -1.638537E+002
  91.0000     -5.309059E-001 -1.703051E+002  1.425658E+000 -9.906311E+000 -4.772042E+001 -1.714667E+002 -1.192118E+000 -1.645390E+002
  92.0000     -5.405355E-001 -1.710460E+002  1.623861E+000 -1.062506E+001 -4.735744E+001 -1.734843E+002 -1.198293E+000 -1.652338E+002
  93.0000     -5.462361E-001 -1.717999E+002  1.816893E+000 -1.130149E+001 -4.743261E+001 -1.739187E+002 -1.212784E+000 -1.658889E+002
  94.0000     -5.546253E-001 -1.725380E+002  2.002800E+000 -1.200038E+001 -4.714276E+001 -1.733268E+002 -1.224324E+000 -1.665573E+002
  95.0000     -5.635568E-001 -1.732678E+002  2.189099E+000 -1.266089E+001 -4.696648E+001 -1.750882E+002 -1.233454E+000 -1.672098E+002
  96.0000     -5.693320E-001 -1.739852E+002  2.373918E+000 -1.336125E+001 -4.661637E+001 -1.760671E+002 -1.244533E+000 -1.678656E+002
  97.0000     -5.755256E-001 -1.747151E+002  2.558904E+000 -1.403295E+001 -4.653616E+001 -1.766870E+002 -1.255066E+000 -1.685262E+002
  98.0000     -5.839803E-001 -1.754152E+002  2.739373E+000 -1.468237E+001 -4.625377E+001 -1.779374E+002 -1.265886E+000 -1.691573E+002
  99.0000     -5.888920E-001 -1.761243E+002  2.914585E+000 -1.535377E+001 -4.621091E+001 -1.780555E+002 -1.280357E+000 -1.697917E+002
 100.0000     -6.017752E-001 -1.768130E+002  3.088794E+000 -1.597699E+001 -4.565943E+001 -1.796971E+002 -1.290552E+000 -1.704097E+002
 101.0000     -6.066108E-001 -1.775191E+002  3.266606E+000 -1.664423E+001 -4.577887E+001  1.795810E+002 -1.299489E+000 -1.710430E+002
 102.0000     -6.140342E-001 -1.782095E+002  3.435529E+000 -1.729731E+001 -4.572853E+001  1.787497E+002 -1.311796E+000 -1.716433E+002
 103.0000     -6.224442E-001 -1.788773E+002  3.605602E+000 -1.794737E+001 -4.536517E+001  1.795101E+002 -1.322577E+000 -1.722728E+002
 104.0000     -6.307964E-001 -1.795811E+002  3.775176E+000 -1.858254E+001 -4.526212E+001  1.784389E+002 -1.333915E+000 -1.728613E+002
 105.0000     -6.378542E-001  1.797516E+002  3.937746E+000 -1.920603E+001 -4.503299E+001  1.775973E+002 -1.345660E+000 -1.734613E+002
 106.0000     -6.472532E-001  1.790802E+002  4.102830E+000 -1.985753E+001 -4.484713E+001  1.771899E+002 -1.354942E+000 -1.740567E+002
 107.0000     -6.572338E-001  1.784284E+002  4.261613E+000 -2.044637E+001 -4.465340E+001  1.769768E+002 -1.367910E+000 -1.746294E+002
 108.0000     -6.611553E-001  1.777619E+002  4.426329E+000 -2.110548E+001 -4.447774E+001  1.747943E+002 -1.379768E+000 -1.752220E+002
 109.0000     -6.718327E-001  1.771162E+002  4.584073E+000 -2.169006E+001 -4.437695E+001  1.754292E+002 -1.388370E+000 -1.757846E+002
 110.0000     -6.811318E-001  1.764633E+002  4.740546E+000 -2.232272E+001 -4.407110E+001  1.737648E+002 -1.399359E+000 -1.763599E+002
 111.0000     -6.886539E-001  1.758392E+002  4.895939E+000 -2.291033E+001 -4.399182E+001  1.739920E+002 -1.412650E+000 -1.769343E+002
 112.0000     -6.976600E-001  1.751689E+002  5.047920E+000 -2.354600E+001 -4.381450E+001  1.739935E+002 -1.423059E+000 -1.774795E+002
 113.0000     -7.053419E-001  1.745326E+002  5.199458E+000 -2.415425E+001 -4.381104E+001  1.718726E+002 -1.437413E+000 -1.780593E+002
 114.0000     -7.138744E-001  1.739288E+002  5.349465E+000 -2.472034E+001 -4.348313E+001  1.723190E+002 -1.451626E+000 -1.786034E+002
 115.0000     -7.247519E-001  1.732880E+002  5.505583E+000 -2.533440E+001 -4.332592E+001  1.705141E+002 -1.456946E+000 -1.791414E+002
 116.0000     -7.335051E-001  1.726563E+002  5.646883E+000 -2.594434E+001 -4.328949E+001  1.703583E+002 -1.470384E+000 -1.797020E+002
 117.0000     -7.409460E-001  1.720508E+002  5.792224E+000 -2.652099E+001 -4.306379E+001  1.703914E+002 -1.482271E+000  1.797715E+002
 118.0000     -7.517514E-001  1.714257E+002  5.935696E+000 -2.711119E+001 -4.303880E+001  1.689957E+002 -1.494578E+000  1.792178E+002
 119.0000     -7.599416E-001  1.708194E+002  6.078053E+000 -2.766978E+001 -4.278720E+001  1.683316E+002 -1.508763E+000  1.787011E+002
 120.0000     -7.668239E-001  1.701959E+002  6.220500E+000 -2.827731E+001 -4.263962E+001  1.666201E+002 -1.519669E+000  1.781666E+002
 121.0000     -7.799138E-001  1.695954E+002  6.356478E+000 -2.886512E+001 -4.254453E+001  1.672510E+002 -1.531896E+000  1.776294E+002
 122.0000     -7.878394E-001  1.689881E+002  6.496138E+000 -2.943457E+001 -4.246100E+001  1.666637E+002 -1.543604E+000  1.771275E+002
 123.0000     -7.970260E-001  1.683905E+002  6.635491E+000 -2.999812E+001 -4.227177E+001  1.657103E+002 -1.556631E+000  1.766014E+002
 124.0000     -8.071445E-001  1.677981E+002  6.770842E+000 -3.056286E+001 -4.214729E+001  1.642612E+002 -1.568352E+000  1.760941E+002
 125.0000     -8.172690E-001  1.672037E+002  6.901612E+000 -3.112272E+001 -4.206637E+001  1.645939E+002 -1.582388E+000  1.755853E+002
 126.0000     -8.268479E-001  1.666301E+002  7.030368E+000 -3.168757E+001 -4.194609E+001  1.640109E+002 -1.598277E+000  1.750774E+002
 127.0000     -8.378716E-001  1.660204E+002  7.166067E+000 -3.228136E+001 -4.178075E+001  1.633987E+002 -1.608549E+000  1.745595E+002
 128.0000     -8.453868E-001  1.654508E+002  7.296619E+000 -3.281296E+001 -4.164211E+001  1.624541E+002 -1.624344E+000  1.740612E+002
 129.0000     -8.577750E-001  1.648799E+002  7.425483E+000 -3.335481E+001 -4.139971E+001  1.616356E+002 -1.633798E+000  1.735814E+002
 130.0000     -8.685948E-001  1.643034E+002  7.551184E+000 -3.391068E+001 -4.132885E+001  1.616924E+002 -1.650269E+000  1.730878E+002
 131.0000     -8.795362E-001  1.637074E+002  7.676887E+000 -3.450277E+001 -4.111102E+001  1.610128E+002 -1.663301E+000  1.725856E+002
 132.0000     -8.897434E-001  1.631553E+002  7.805311E+000 -3.504362E+001 -4.102610E+001  1.598038E+002 -1.673939E+000  1.720858E+002
 133.0000     -9.017705E-001  1.625730E+002  7.926626E+000 -3.558943E+001 -4.083661E+001  1.596699E+002 -1.689747E+000  1.716113E+002
 134.0000     -9.107323E-001  1.620075E+002  8.052138E+000 -3.612460E+001 -4.079673E+001  1.592338E+002 -1.702427E+000  1.711137E+002
 135.0000     -9.237745E-001  1.614457E+002  8.174453E+000 -3.666359E+001 -4.069261E+001  1.582518E+002 -1.713919E+000  1.706646E+002
 136.0000     -9.367177E-001  1.608765E+002  8.289772E+000 -3.722487E+001 -4.056970E+001  1.579416E+002 -1.731657E+000  1.701855E+002
 137.0000     -9.443812E-001  1.603223E+002  8.413189E+000 -3.776400E+001 -4.044897E+001  1.569274E+002 -1.744031E+000  1.696913E+002
 138.0000     -9.582356E-001  1.597688E+002  8.527863E+000 -3.830447E+001 -4.030601E+001  1.563692E+002 -1.760377E+000  1.692174E+002
 139.0000     -9.689928E-001  1.591959E+002  8.646609E+000 -3.885645E+001 -4.011877E+001  1.557530E+002 -1.774104E+000  1.687543E+002
 140.0000     -9.811522E-001  1.586210E+002  8.761795E+000 -3.943175E+001 -3.996410E+001  1.548476E+002 -1.787027E+000  1.682782E+002
 141.0000     -9.912916E-001  1.580822E+002  8.874981E+000 -3.993381E+001 -3.988993E+001  1.547053E+002 -1.804080E+000  1.678220E+002
 142.0000     -1.002944E+000  1.575415E+002  8.992477E+000 -4.044550E+001 -3.978308E+001  1.546901E+002 -1.819593E+000  1.673635E+002
 143.0000     -1.015542E+000  1.570130E+002  9.099894E+000 -4.096355E+001 -3.972567E+001  1.536262E+002 -1.835650E+000  1.668999E+002
 144.0000     -1.029950E+000  1.564545E+002  9.213608E+000 -4.148809E+001 -3.961838E+001  1.531428E+002 -1.848665E+000  1.664501E+002
 145.0000     -1.041642E+000  1.559077E+002  9.322202E+000 -4.201876E+001 -3.950589E+001  1.530749E+002 -1.865586E+000  1.659874E+002
 146.0000     -1.053429E+000  1.553802E+002  9.432743E+000 -4.253203E+001 -3.934460E+001  1.522140E+002 -1.880835E+000  1.655322E+002
 147.0000     -1.066890E+000  1.548422E+002  9.544281E+000 -4.303876E+001 -3.913486E+001  1.518289E+002 -1.895251E+000  1.650953E+002
 148.0000     -1.081975E+000  1.542911E+002  9.645659E+000 -4.359803E+001 -3.910122E+001  1.508658E+002 -1.912291E+000  1.646406E+002
 149.0000     -1.092008E+000  1.537680E+002  9.757208E+000 -4.410203E+001 -3.903932E+001  1.504306E+002 -1.928891E+000  1.642010E+002
 150.0000     -1.107679E+000  1.532540E+002  9.858903E+000 -4.463433E+001 -3.894839E+001  1.498748E+002 -1.946982E+000  1.637345E+002
 151.0000     -1.119442E+000  1.526913E+002  9.969031E+000 -4.515308E+001 -3.879943E+001  1.489166E+002 -1.959753E+000  1.633062E+002
 152.0000     -1.133873E+000  1.521607E+002  1.006914E+001 -4.566776E+001 -3.867299E+001  1.485776E+002 -1.976553E+000  1.628734E+002
 153.0000     -1.145985E+000  1.516405E+002  1.017206E+001 -4.616834E+001 -3.865308E+001  1.491099E+002 -1.995500E+000  1.624481E+002
 154.0000     -1.159420E+000  1.511037E+002  1.027482E+001 -4.667939E+001 -3.849484E+001  1.480558E+002 -2.010877E+000  1.620176E+002
