!Mini-Circuits Laboratory
!S-Parameters
!Model: ZX60-33LNR-S+
!Run / Lot / Date Code: E181103 / N/A / N/A
!Fixture: N/A, Pressing Arm: N/A
!Network Analyzer: PNA-X N5242A - 423 4 ports;  Serial number: 74302
!Date: 11/9/2018 at 2:35:26 PM
!S/N: Unit# 3
!Volage and Current limited to 5V and 150mA
# Hz  S  dB  R  50
!Frequency    S11 dB        S11 Deg       S21 dB        S21 Deg       S12 dB        S12 Deg       S22 dB        S22 Deg       
10000000      -7.1168380    -8.2896030    24.7245700    -167.3066000  -39.6783800   79.8954700    -16.7227500   46.0437400    
15000000      -7.3445010    -10.2842800   24.8125000    -173.1995000  -36.9229900   65.0381000    -20.0250500   -1.7690680    
20000000      -7.6166910    -11.5463000   24.8149400    -177.1739000  -35.3821100   54.0216300    -21.7108800   -39.0577000   
25000000      -7.8007820    -12.7491900   24.7941900    -179.7789000  -34.4548800   46.1034200    -21.9271700   -69.1849300   
30000000      -7.8737120    -13.8636800   24.7674400    178.4480000   -33.8600700   40.2352400    -21.4932600   -89.1047100   
35000000      -7.9223290    -14.9532500   24.7452000    176.8784000   -33.4537000   35.6138800    -21.1521100   -103.3284000  
40000000      -7.9620290    -16.2154200   24.7310100    175.4183000   -33.1712200   31.8695900    -20.8581500   -114.5697000  
45000000      -7.9745740    -17.5051500   24.7191000    174.0891000   -32.9566600   28.8097100    -20.6312500   -123.1633000  
50000000      -7.9810890    -18.8479900   24.7160500    172.7749000   -32.7345500   26.3073200    -20.6109000   -130.5676000  
55000000      -7.9688040    -20.2544100   24.7043300    171.6833000   -32.6637200   24.1545700    -20.3075200   -135.7461000  
60000000      -7.9600130    -21.7318700   24.6953900    170.5361000   -32.5601100   22.3723600    -20.2036700   -140.5449000  
65000000      -7.9527330    -23.2531800   24.6868600    169.4124000   -32.4746600   20.8086000    -20.1120700   -144.7740000  
70000000      -7.9442430    -24.7904000   24.6751300    168.3013000   -32.4082300   19.4698000    -20.0421900   -148.5162000  
75000000      -7.9376860    -26.4016700   24.6638300    167.2005000   -32.3492700   18.2757400    -19.9638900   -151.8373000  
80000000      -7.9255630    -27.9216700   24.6525800    166.1511000   -32.2971300   17.2388200    -19.9270800   -154.7527000  
85000000      -7.9091490    -29.4990000   24.6410600    165.0857000   -32.2492000   16.3122600    -19.9029600   -157.3588000  
90000000      -7.8933250    -31.0809100   24.6285300    164.0427000   -32.2051200   15.5037100    -19.8732400   -159.6841000  
95000000      -7.8815210    -32.6195700   24.6156800    163.0106000   -32.1683400   14.7480900    -19.8574400   -161.9334000  
100000000     -7.8661540    -34.2126100   24.6036400    161.9755000   -32.1348200   14.0925600    -19.8384100   -163.9081000  
105000000     -7.8542710    -35.8025300   24.5865800    160.9590000   -32.1017800   13.4426500    -19.8366300   -165.8912000  
110000000     -7.8422430    -37.3517700   24.5741200    159.9576000   -32.0736500   12.9074100    -19.8300900   -167.4450000  
115000000     -7.8293640    -38.9042600   24.5547900    158.9510000   -32.0388200   12.3722200    -19.8249000   -169.2952000  
120000000     -7.8174660    -40.4572900   24.5358600    157.9523000   -32.0130400   11.9176900    -19.8253800   -170.8743000  
125000000     -7.7992800    -41.9749400   24.5207000    156.9934000   -31.9906300   11.4546300    -19.8367700   -172.4129000  
130000000     -7.7872330    -43.4841800   24.5010100    155.9927000   -31.9630500   11.0624900    -19.8360000   -173.8837000  
135000000     -7.7747490    -45.0377500   24.4807000    155.0241000   -31.9371000   10.6752500    -19.8530200   -175.2407000  
140000000     -7.7545290    -46.5903000   24.4629600    154.0641000   -31.9101200   10.3460400    -19.8525700   -176.4142000  
145000000     -7.7450960    -48.1329600   24.4442300    153.1028000   -31.8882900   10.0030400    -19.8672600   -177.7920000  
150000000     -7.7303350    -49.5940100   24.4204100    152.1403000   -31.8610200   9.7039920     -19.8822700   -178.9981000  
155000000     -7.7118190    -51.1720400   24.4010000    151.1918000   -31.8368400   9.4103130     -19.8968300   179.8401000   
160000000     -7.6981010    -52.6517000   24.3788500    150.2256000   -31.8120900   9.1379680     -19.9013400   178.6651000   
165000000     -7.6826410    -54.1253700   24.3558300    149.2911000   -31.7854300   8.8623130     -19.9231200   177.5500000   
170000000     -7.6691160    -55.5937100   24.3322100    148.3433000   -31.7632300   8.6182460     -19.9483700   176.4119000   
175000000     -7.6504590    -57.0649600   24.3109400    147.4115000   -31.7395500   8.3863710     -19.9766500   175.4350000   
180000000     -7.6391550    -58.5069000   24.2853300    146.4894000   -31.7124500   8.1420060     -19.9971600   174.4438000   
185000000     -7.6180110    -59.9565500   24.2616700    145.5497000   -31.6870500   7.9293200     -20.0176200   173.4960000   
190000000     -7.6078320    -61.3814400   24.2357200    144.6280000   -31.6615800   7.6935830     -20.0433700   172.5220000   
195000000     -7.5854140    -62.7979200   24.2099800    143.7072000   -31.6384600   7.5002240     -20.0754600   171.5975000   
200000000     -7.5783990    -64.2668300   24.1824800    142.7939000   -31.6103600   7.2888340     -20.0860900   170.7082000   
205000000     -7.5556150    -65.6198000   24.1574900    141.8900000   -31.5880200   7.1120830     -20.1285200   169.8631000   
210000000     -7.5404460    -67.0278900   24.1299700    140.9750000   -31.5609800   6.9208190     -20.1566000   169.0154000   
215000000     -7.5196140    -68.4102900   24.1045600    140.0744000   -31.5343300   6.7335650     -20.1930600   168.2563000   
220000000     -7.5079760    -69.7245600   24.0772400    139.1851000   -31.5088500   6.5501540     -20.2310900   167.4124000   
225000000     -7.4908900    -71.1259900   24.0508000    138.2706000   -31.4782700   6.3816260     -20.2519900   166.6379000   
230000000     -7.4775420    -72.4525600   24.0220400    137.3936000   -31.4550400   6.1935500     -20.3008100   165.8163000   
235000000     -7.4589280    -73.8559200   23.9935300    136.4964000   -31.4256600   6.0230000     -20.3253900   165.0975000   
240000000     -7.4419550    -75.1613100   23.9647900    135.6111000   -31.3985300   5.8572540     -20.3574400   164.3029000   
245000000     -7.4254220    -76.5107900   23.9361500    134.7225000   -31.3704500   5.6875590     -20.3867400   163.5161000   
250000000     -7.4145240    -77.8836000   23.9048900    133.8334000   -31.3394200   5.5002990     -20.4255900   162.7953000   
255000000     -7.4001930    -79.1209900   23.8765500    132.9689000   -31.3143100   5.3472740     -20.4776400   161.9830000   
260000000     -7.3747340    -80.4024400   23.8472000    132.0907000   -31.2863700   5.1772660     -20.5157800   161.2383000   
265000000     -7.3571250    -81.7366100   23.8184900    131.2157000   -31.2580700   5.0356620     -20.5559100   160.5510000   
270000000     -7.3450280    -83.0189500   23.7870200    130.3532000   -31.2289800   4.8415420     -20.5993800   159.7695000   
275000000     -7.3327010    -84.2889100   23.7555800    129.4975000   -31.1984400   4.6949950     -20.6379200   159.0971000   
280000000     -7.3106030    -85.5287200   23.7239900    128.6373000   -31.1698000   4.5300740     -20.6865800   158.3995000   
285000000     -7.2976620    -86.7890200   23.6908600    127.7834000   -31.1375100   4.3608590     -20.7316000   157.6913000   
290000000     -7.2765010    -88.0422500   23.6606000    126.9328000   -31.1093600   4.2028160     -20.7665200   157.0648000   
295000000     -7.2611420    -89.2668800   23.6289700    126.0818000   -31.0773700   4.0547830     -20.8145800   156.3845000   
300000000     -7.2441150    -90.4531300   23.5981300    125.2402000   -31.0456400   3.8739200     -20.8655100   155.8431000   
305000000     -7.2298030    -91.6636900   23.5647100    124.3955000   -31.0162600   3.7256610     -20.9137200   155.1306000   
310000000     -7.2104820    -92.8457700   23.5338800    123.5659000   -30.9848200   3.5687840     -20.9654800   154.5873000   
315000000     -7.1951820    -94.0248500   23.5004400    122.7375000   -30.9557000   3.3911560     -21.0130200   153.9384000   
320000000     -7.1811580    -95.1980900   23.4684300    121.9099000   -30.9268600   3.2309520     -21.0633000   153.3486000   
325000000     -7.1632490    -96.3681900   23.4349200    121.0778000   -30.8949500   3.0651180     -21.1049400   152.7637000   
330000000     -7.1440560    -97.5470800   23.4015600    120.2430000   -30.8643400   2.9089140     -21.1548400   152.1454000   
335000000     -7.1308080    -98.6999700   23.3683700    119.4234000   -30.8317300   2.7419110     -21.2080000   151.5962000   
340000000     -7.1165600    -99.8213000   23.3343800    118.6084000   -30.8005800   2.5596810     -21.2671100   150.9947000   
345000000     -7.0978270    -100.9431000  23.3017900    117.7862000   -30.7679400   2.4053770     -21.3336300   150.4635000   
350000000     -7.0891060    -102.1143000  23.2680500    116.9575000   -30.7349700   2.2185380     -21.3615100   149.8861000   
355000000     -7.0705870    -103.1845000  23.2327800    116.1559000   -30.7029600   2.0528290     -21.4336600   149.2886000   
360000000     -7.0539500    -104.3014000  23.2000500    115.3530000   -30.6740800   1.8815810     -21.4932700   148.7642000   
365000000     -7.0464970    -105.4190000  23.1645600    114.5478000   -30.6416300   1.7061550     -21.5421400   148.1447000   
370000000     -7.0325440    -106.5341000  23.1288900    113.7399000   -30.6100200   1.5340940     -21.5930300   147.5511000   
375000000     -7.0227770    -107.5691000  23.0949500    112.9397000   -30.5777300   1.3601670     -21.6476000   146.9560000   
380000000     -6.9985480    -108.6265000  23.0614200    112.1420000   -30.5445200   1.1752420     -21.7061700   146.4292000   
385000000     -6.9882100    -109.6877000  23.0260500    111.3472000   -30.5131400   0.9927966     -21.7608800   145.7839000   
390000000     -6.9705170    -110.7352000  22.9925300    110.5492000   -30.4808000   0.8241458     -21.8169400   145.2264000   
395000000     -6.9621110    -111.7917000  22.9560200    109.7593000   -30.4484900   0.6480718     -21.8721500   144.6028000   
400000000     -6.9472310    -112.8645000  22.9213800    108.9649000   -30.4159000   0.4541039     -21.9314100   144.1180000   
405000000     -6.9353330    -113.8539000  22.8854200    108.1887000   -30.3849300   0.2808886     -21.9935600   143.5079000   
410000000     -6.9249330    -114.9112000  22.8487300    107.4038000   -30.3501000   0.0857230     -22.0355000   143.0032000   
415000000     -6.9116430    -115.9253000  22.8125400    106.6300000   -30.3182800   -0.0970891    -22.1059400   142.4326000   
420000000     -6.9028020    -116.9169000  22.7769400    105.8513000   -30.2858400   -0.2966755    -22.1681000   141.8882000   
425000000     -6.8918350    -117.9071000  22.7435200    105.0860000   -30.2530100   -0.4822407    -22.2343200   141.4308000   
430000000     -6.8828850    -118.8773000  22.7077200    104.3141000   -30.2205100   -0.6715428    -22.3122500   140.9606000   
435000000     -6.8710370    -119.8424000  22.6717200    103.5404000   -30.1889000   -0.8678867    -22.3710400   140.4800000   
440000000     -6.8621690    -120.8136000  22.6344800    102.7839000   -30.1561000   -1.0558330    -22.4423800   140.0065000   
445000000     -6.8524270    -121.7792000  22.5981200    102.0180000   -30.1215100   -1.2566230    -22.5055700   139.5719000   
450000000     -6.8431880    -122.7344000  22.5597600    101.2597000   -30.0920000   -1.4743950    -22.5787000   139.1030000   
455000000     -6.8326870    -123.7030000  22.5239400    100.5029000   -30.0577600   -1.6502620    -22.6453300   138.6780000   
460000000     -6.8271030    -124.6205000  22.4868500    99.7503700    -30.0262400   -1.8562640    -22.7182500   138.1943000   
465000000     -6.8200160    -125.5905000  22.4498200    98.9935400    -29.9921300   -2.0598190    -22.7957200   137.7865000   
470000000     -6.8152860    -126.4853000  22.4138400    98.2539700    -29.9600100   -2.2707550    -22.8706700   137.3649000   
475000000     -6.8046060    -127.4150000  22.3775800    97.5012300    -29.9270100   -2.4640650    -22.9525400   136.9815000   
480000000     -6.7962230    -128.3155000  22.3404800    96.7581700    -29.8934500   -2.6747070    -23.0345600   136.5018000   
485000000     -6.7864030    -129.2423000  22.3036500    96.0165200    -29.8611800   -2.8820500    -23.1137100   136.1105000   
490000000     -6.7820910    -130.1411000  22.2654400    95.2820100    -29.8298200   -3.0968680    -23.1833200   135.5977000   
495000000     -6.7697200    -131.0500000  22.2289900    94.5404100    -29.7959300   -3.3031920    -23.2682200   135.2361000   
500000000     -6.7664780    -131.9282000  22.1925300    93.8173300    -29.7643300   -3.5237510    -23.3523500   134.8152000   
525000000     -6.7205340    -136.2261000  22.0065900    90.1903200    -29.6020400   -4.6080690    -23.7591800   132.7809000   
550000000     -6.6908440    -140.3948000  21.8246800    86.6217300    -29.4427200   -5.7259620    -24.1506000   130.7381000   
575000000     -6.6610740    -144.5175000  21.6376500    83.1402100    -29.2763500   -6.8417060    -24.6250600   129.1886000   
600000000     -6.6339820    -148.3109000  21.4614000    79.6799500    -29.1095100   -7.9967090    -25.0809800   127.5237000   
625000000     -6.6019990    -152.0777000  21.2788200    76.2614800    -28.9447600   -9.2029240    -25.5832700   126.0165000   
650000000     -6.5884060    -155.8255000  21.1011800    72.8800000    -28.7809200   -10.4727200   -26.0640100   124.7649000   
675000000     -6.5633120    -159.5194000  20.9232300    69.5219300    -28.6162400   -11.7971000   -26.5890000   123.7860000   
700000000     -6.5427590    -163.2605000  20.7378300    66.1884200    -28.4559700   -13.1690900   -27.1348200   122.6149000   
725000000     -6.5855790    -166.9989000  20.5387000    62.9330300    -28.3229200   -14.6201100   -27.9268600   120.4984000   
750000000     -6.6947830    -169.6988000  20.3684500    60.1461300    -28.1827700   -15.6268900   -29.1662000   122.4877000   
775000000     -6.6351830    -172.5755000  20.2292400    56.9113300    -27.9911300   -17.0074000   -29.6415300   124.5070000   
800000000     -6.6112160    -175.8443000  20.0668200    53.6933400    -27.8281200   -18.4802900   -30.2722000   125.7315000   
825000000     -6.6092840    -178.9159000  19.9023800    50.5311700    -27.6686300   -19.9444500   -30.9798200   127.3595000   
850000000     -6.6206140    178.0231000   19.7382600    47.4317500    -27.5162800   -21.4574900   -31.7617000   129.8973000   
875000000     -6.6198790    175.0441000   19.5712400    44.3791800    -27.3602500   -22.9876800   -32.4987800   133.3826000   
900000000     -6.6445430    172.0996000   19.4109200    41.3406800    -27.2109800   -24.5436700   -33.3582500   138.9249000   
925000000     -6.6521240    169.3138000   19.2532600    38.3257700    -27.0657900   -26.0845000   -34.0738600   145.3926000   
950000000     -6.6853560    166.4431000   19.0941200    35.3456800    -26.9236100   -27.6794400   -34.6474300   153.9618000   
975000000     -6.6944790    163.7295000   18.9359500    32.3776800    -26.7768700   -29.2590300   -34.7610500   162.7811000   
1000000000    -6.7184400    160.9824000   18.7812500    29.4341400    -26.6392700   -30.8965200   -34.6791800   171.7477000   
1025000000    -6.7532240    158.3095000   18.6271400    26.4940000    -26.5069900   -32.5210800   -34.3254500   -179.4306000  
1050000000    -6.7723340    155.6785000   18.4713400    23.5757300    -26.3673700   -34.1964400   -33.6769900   -171.4432000  
1075000000    -6.7815790    153.0698000   18.3153100    20.6846000    -26.2376900   -35.8867500   -32.7593400   -164.0346000  
1100000000    -6.8121170    150.4682000   18.1612600    17.7798400    -26.1140100   -37.5875400   -31.5854400   -158.2588000  
1125000000    -6.8239340    147.7516000   17.9964400    14.9213500    -25.9980200   -39.2963200   -30.2718000   -153.5256000  
1150000000    -6.8315480    144.9580000   17.8191500    12.1362800    -25.9031200   -40.9562300   -28.7025600   -150.7822000  
1175000000    -6.8749350    141.8981000   17.6262800    9.6342950     -25.8172900   -42.3252500   -26.9597400   -152.3776000  
1200000000    -7.0273930    138.8479000   17.4864000    7.5071870     -25.6789200   -43.4040600   -25.7498800   -160.1224000  
1225000000    -7.2014430    136.6930000   17.4326500    5.0974750     -25.4614200   -44.8497900   -25.6678600   -167.3064000  
1250000000    -7.3034120    134.7689000   17.3629200    2.2631010     -25.2679700   -46.7394600   -25.8653800   -169.1452000  
1275000000    -7.3591970    132.7802000   17.2656000    -0.6663163    -25.1136600   -48.6886300   -25.8251800   -169.0165000  
1300000000    -7.4062410    130.6718000   17.1500400    -3.5384840    -24.9728900   -50.6144700   -25.5944200   -168.3673000  
1325000000    -7.4633240    128.4992000   17.0312900    -6.3574490    -24.8410600   -52.5501200   -25.2201200   -167.8702000  
1350000000    -7.5105250    126.3107000   16.9119600    -9.1573890    -24.7159600   -54.4486600   -24.7456300   -167.7210000  
1375000000    -7.5666830    124.0814000   16.7874900    -11.9530000   -24.5919100   -56.3379100   -24.3036200   -168.2463000  
1400000000    -7.6188080    121.8964000   16.6635500    -14.6981000   -24.4716200   -58.2104100   -23.8892100   -168.8164000  
1425000000    -7.6697260    119.7709000   16.5426600    -17.4022600   -24.3495600   -60.0709700   -23.4479800   -169.5847000  
1450000000    -7.7371900    117.6293000   16.4236700    -20.1123700   -24.2326800   -61.9436700   -23.0401300   -170.5149000  
1475000000    -7.8073460    115.4032000   16.3037400    -22.7839100   -24.1146900   -63.8354100   -22.6537900   -171.6194000  
1500000000    -7.8687090    113.2823000   16.1877400    -25.4538900   -23.9972400   -65.7635100   -22.2780500   -172.9384000  
1525000000    -7.9394620    111.0211000   16.0744700    -28.1240100   -23.8825400   -67.6878100   -21.9093700   -174.1756000  
1550000000    -8.0032720    108.9501000   15.9594800    -30.7718300   -23.7646900   -69.5705300   -21.5963100   -175.4962000  
1575000000    -8.0754740    106.8697000   15.8498600    -33.4190400   -23.6532100   -71.5055500   -21.2660300   -176.8622000  
1600000000    -8.1527130    104.7089000   15.7433500    -36.0744900   -23.5414100   -73.4533500   -20.8936700   -178.3756000  
1625000000    -8.2315880    102.5153000   15.6337800    -38.7046700   -23.4298300   -75.3937500   -20.5910000   179.9993000   
1650000000    -8.2948110    100.4663000   15.5269800    -41.3137600   -23.3205600   -77.3266200   -20.3041600   178.5067000   
1675000000    -8.3771140    98.2767600    15.4194100    -43.9301200   -23.2104900   -79.3420600   -19.9959200   176.8356000   
1700000000    -8.4699170    96.2480900    15.3168200    -46.5724200   -23.1094200   -81.2955800   -19.7108200   174.9655000   
1725000000    -8.5512290    94.0801300    15.2134800    -49.1634600   -23.0042600   -83.2661100   -19.4460500   173.4227000   
1750000000    -8.6434060    91.9291000    15.1111300    -51.7429000   -22.8998400   -85.2750800   -19.1539300   171.7517000   
1775000000    -8.7230580    89.7548500    15.0101900    -54.3433400   -22.8037200   -87.2745100   -18.8903400   169.9917000   
1800000000    -8.8322460    87.6982900    14.9077700    -56.9212200   -22.7059700   -89.2289100   -18.6225100   167.9280000   
1825000000    -8.9218240    85.6218500    14.8122800    -59.4976400   -22.6032900   -91.2034100   -18.3707600   165.9738000   
