!Mini-Circuits Laboratory
!S-Parameters
!Model: ZX60-33LNR-S+
!Run / Lot / Date Code: E181103 / N/A / N/A
!Fixture: N/A, Pressing Arm: N/A
!Network Analyzer: PNA-X N5242A - 423 4 ports;  Serial number: 74302
!Date: 11/9/2018 at 2:35:48 PM
!S/N: Unit# 5
!Volage and Current limited to 5V and 150mA
# Hz  S  dB  R  50
!Frequency    S11 dB        S11 Deg       S21 dB        S21 Deg       S12 dB        S12 Deg       S22 dB        S22 Deg       
10000000      -7.2197220    -8.6909570    24.7969400    -167.9496000  -39.5688600   79.1904400    -17.0455900   40.4626600    
15000000      -7.3900090    -10.5439700   24.8684600    -173.6247000  -36.8771100   64.4347200    -19.7097700   -6.8357210    
20000000      -7.6715050    -11.7541300   24.8708700    -177.4852000  -35.3525800   53.5073500    -21.0893000   -41.5255000   
25000000      -7.8656090    -12.9622200   24.8514300    179.9701000   -34.4355100   45.6808900    -21.3347000   -69.1508800   
30000000      -7.9346020    -14.0510500   24.8243500    178.2328000   -33.8375600   39.9179500    -21.0482000   -87.8403000   
35000000      -7.9806890    -15.1158400   24.8020100    176.6869000   -33.4415900   35.3057000    -20.8380300   -101.5672000  
40000000      -8.0262100    -16.3539400   24.7878000    175.2486000   -33.1540900   31.5362300    -20.6462700   -112.5760000  
45000000      -8.0285600    -17.6692700   24.7762100    173.9314000   -32.9429800   28.5474600    -20.4962600   -121.1215000  
50000000      -7.9818960    -18.4553900   24.7744900    172.6250000   -32.8288300   25.9276100    -20.5491600   -128.4888000  
55000000      -8.0174900    -20.4281700   24.7620000    171.5321000   -32.6505600   23.9370300    -20.2721800   -133.7724000  
60000000      -8.0022050    -21.9666000   24.7529300    170.3885000   -32.5488400   22.1453000    -20.2008900   -138.6278000  
65000000      -7.9975120    -23.5082300   24.7438800    169.2664000   -32.4655700   20.6301600    -20.1349100   -142.9260000  
70000000      -7.9849440    -25.0509500   24.7321000    168.1576000   -32.3967300   19.2927500    -20.0878200   -146.7422000  
75000000      -7.9819290    -26.6872200   24.7208100    167.0589000   -32.3397500   18.1163300    -20.0273300   -150.1349000  
80000000      -7.9641120    -28.1865600   24.7088500    166.0107000   -32.2859100   17.0898700    -20.0054500   -153.1094000  
85000000      -7.9454570    -29.7988300   24.6974400    164.9481000   -32.2400600   16.1871700    -19.9946800   -155.7693000  
90000000      -7.9304040    -31.3679300   24.6845400    163.9062000   -32.1957400   15.3868000    -19.9765600   -158.1356000  
95000000      -7.9164880    -32.9686000   24.6718000    162.8727000   -32.1606800   14.6310300    -19.9713400   -160.4278000  
100000000     -7.8972960    -34.5779900   24.6593500    161.8391000   -32.1269500   13.9827200    -19.9607100   -162.4397000  
105000000     -7.8878420    -36.1528700   24.6419300    160.8181000   -32.0946100   13.3688900    -19.9682500   -164.4484000  
110000000     -7.8722500    -37.7373800   24.6291900    159.8209000   -32.0606600   12.8260400    -19.9677900   -166.0262000  
115000000     -7.8577340    -39.3342900   24.6103400    158.8141000   -32.0329900   12.3114900    -19.9693200   -167.9031000  
120000000     -7.8503170    -40.9505700   24.5909200    157.8147000   -32.0043000   11.8413500    -19.9756300   -169.4932000  
125000000     -7.8210520    -42.4262900   24.5753600    156.8558000   -31.9787700   11.3810300    -19.9923500   -171.0609000  
130000000     -7.8105940    -43.9742200   24.5554800    155.8525000   -31.9536900   11.0129600    -19.9999700   -172.5355000  
135000000     -7.7969060    -45.5321100   24.5349400    154.8792000   -31.9259700   10.6343300    -20.0217200   -173.8996000  
140000000     -7.7764520    -47.1056000   24.5172400    153.9188000   -31.9013100   10.3032100    -20.0252800   -175.0940000  
145000000     -7.7643500    -48.6638900   24.4985200    152.9547000   -31.8767300   9.9392560     -20.0445400   -176.4748000  
150000000     -7.7415380    -50.1756700   24.4753000    151.9892000   -31.8487900   9.6580950     -20.0635900   -177.6873000  
155000000     -7.7248760    -51.7036700   24.4554300    151.0423000   -31.8227900   9.3625260     -20.0825200   -178.8726000  
160000000     -7.7135160    -53.2330700   24.4330400    150.0713000   -31.8018500   9.0879540     -20.0908900   179.9430000   
165000000     -7.6943040    -54.7437900   24.4101000    149.1352000   -31.7733800   8.8089860     -20.1168600   178.8065000   
170000000     -7.6751470    -56.2000500   24.3865200    148.1900000   -31.7491200   8.5699820     -20.1458500   177.6647000   
175000000     -7.6569140    -57.6543700   24.3641800    147.2557000   -31.7259000   8.3345430     -20.1790000   176.6719000   
180000000     -7.6365140    -59.1268700   24.3396600    146.3291000   -31.6984700   8.1016270     -20.2023500   175.6728000   
185000000     -7.6171230    -60.5918700   24.3160800    145.3846000   -31.6714400   7.8876930     -20.2258300   174.7164000   
190000000     -7.6086850    -62.0216100   24.2888400    144.4609000   -31.6452300   7.6659750     -20.2568400   173.7295000   
195000000     -7.5840190    -63.4386900   24.2638400    143.5396000   -31.6230800   7.4619710     -20.2912100   172.7921000   
200000000     -7.5750960    -64.8999900   24.2359400    142.6217000   -31.5949900   7.2629690     -20.3043100   171.8937000   
205000000     -7.5497140    -66.2694500   24.2104300    141.7208000   -31.5701700   7.0735170     -20.3503500   171.0416000   
210000000     -7.5347940    -67.6890300   24.1823500    140.8020000   -31.5425500   6.8768550     -20.3822900   170.1910000   
215000000     -7.5104110    -69.0818900   24.1572300    139.8988000   -31.5155300   6.6927110     -20.4205800   169.4234000   
220000000     -7.4942880    -70.4270400   24.1294300    139.0074000   -31.4924600   6.4994490     -20.4612400   168.5748000   
225000000     -7.4751590    -71.8029700   24.1019200    138.0937000   -31.4628000   6.3458300     -20.4857900   167.7858000   
230000000     -7.4582790    -73.1240100   24.0738800    137.2142000   -31.4354500   6.1610430     -20.5348600   166.9579000   
235000000     -7.4382290    -74.5384100   24.0448800    136.3115000   -31.4058600   5.9839270     -20.5608500   166.2326000   
240000000     -7.4220320    -75.8427800   24.0157700    135.4291000   -31.3782900   5.8104720     -20.5942800   165.4380000   
245000000     -7.4026810    -77.1938900   23.9866400    134.5348000   -31.3504700   5.6357140     -20.6256400   164.6407000   
250000000     -7.3809780    -78.5636400   23.9565300    133.6487000   -31.3185600   5.4719080     -20.6653900   163.9161000   
255000000     -7.3655210    -79.8192400   23.9272200    132.7761000   -31.2928800   5.2923470     -20.7213900   163.0970000   
260000000     -7.3457460    -81.1265400   23.8969900    131.8970000   -31.2647900   5.1463970     -20.7610700   162.3616000   
265000000     -7.3272230    -82.4024100   23.8689000    131.0234000   -31.2342700   4.9848690     -20.8026700   161.6767000   
270000000     -7.3112110    -83.6706200   23.8370500    130.1579000   -31.2067200   4.8190680     -20.8477000   160.8907000   
275000000     -7.2968410    -84.9723400   23.8053900    129.2952000   -31.1752500   4.6399070     -20.8876100   160.2128000   
280000000     -7.2751140    -86.2127400   23.7732900    128.4361000   -31.1443100   4.4879550     -20.9380300   159.5239000   
285000000     -7.2580510    -87.4805700   23.7406300    127.5808000   -31.1161500   4.3232710     -20.9858500   158.8122000   
290000000     -7.2386290    -88.7063800   23.7098800    126.7266000   -31.0863200   4.1534040     -21.0218700   158.1914000   
295000000     -7.2184620    -89.9380700   23.6781200    125.8744000   -31.0545300   3.9844990     -21.0717300   157.5171000   
300000000     -7.2007970    -91.1325400   23.6471500    125.0300000   -31.0251400   3.8151410     -21.1251800   156.9860000   
305000000     -7.1845880    -92.3299300   23.6139500    124.1857000   -30.9922500   3.6664030     -21.1754000   156.2656000   
310000000     -7.1640000    -93.5193300   23.5823700    123.3522000   -30.9612600   3.4988650     -21.2289900   155.7342000   
315000000     -7.1483730    -94.6872600   23.5488900    122.5212000   -30.9308600   3.3344970     -21.2774000   155.0785000   
320000000     -7.1330810    -95.8489500   23.5164300    121.6954000   -30.9002800   3.1662730     -21.3300600   154.4895000   
325000000     -7.1127560    -97.0261300   23.4831100    120.8572000   -30.8684000   2.9907330     -21.3735600   153.9019000   
330000000     -7.0942940    -98.1964300   23.4492300    120.0170000   -30.8372800   2.8387160     -21.4259100   153.2827000   
335000000     -7.0769660    -99.3299700   23.4161100    119.2006000   -30.8040600   2.6658600     -21.4802100   152.7410000   
340000000     -7.0590050    -100.4537000  23.3822500    118.3773000   -30.7743600   2.4913620     -21.5427200   152.1376000   
345000000     -7.0407250    -101.5769000  23.3490000    117.5566000   -30.7409500   2.3252200     -21.6087100   151.6058000   
350000000     -7.0284890    -102.7080000  23.3149700    116.7228000   -30.7080000   2.1468830     -21.6375400   151.0221000   
355000000     -7.0113530    -103.8233000  23.2793400    115.9231000   -30.6772100   1.9707510     -21.7116200   150.4309000   
360000000     -6.9970010    -104.9278000  23.2453500    115.1182000   -30.6450200   1.8019540     -21.7706100   149.9120000   
365000000     -6.9861790    -106.0179000  23.2101000    114.3132000   -30.6137800   1.6159180     -21.8188500   149.2891000   
370000000     -6.9692010    -107.1401000  23.1748100    113.4988000   -30.5811100   1.4376240     -21.8686800   148.7070000   
375000000     -6.9561700    -108.1902000  23.1403900    112.7001000   -30.5496000   1.2594410     -21.9244600   148.1144000   
380000000     -6.9366020    -109.2452000  23.1065400    111.8996000   -30.5161300   1.0781360     -21.9815700   147.5943000   
385000000     -6.9275710    -110.3118000  23.0706200    111.1040000   -30.4842500   0.8884484     -22.0367500   146.9576000   
390000000     -6.9081790    -111.3308000  23.0368600    110.3040000   -30.4522800   0.7163277     -22.0912900   146.4221000   
395000000     -6.8968720    -112.3573000  23.0005100    109.5169000   -30.4200700   0.5309927     -22.1461200   145.8005000   
400000000     -6.8830220    -113.4292000  22.9647800    108.7155000   -30.3857200   0.3508910     -22.2051600   145.3455000   
405000000     -6.8708550    -114.4266000  22.9289200    107.9392000   -30.3548500   0.1677673     -22.2681500   144.7455000   
410000000     -6.8568190    -115.5033000  22.8919800    107.1512000   -30.3201600   -0.0364890    -22.3092900   144.2603000   
415000000     -6.8442940    -116.4991000  22.8556400    106.3781000   -30.2884700   -0.2141003    -22.3811300   143.7128000   
420000000     -6.8337830    -117.4764000  22.8196700    105.5966000   -30.2535700   -0.4096078    -22.4425700   143.1827000   
425000000     -6.8213150    -118.4601000  22.7856800    104.8306000   -30.2222700   -0.6047465    -22.5086900   142.7399000   
430000000     -6.8123410    -119.4255000  22.7503800    104.0563000   -30.1895600   -0.7996464    -22.5892100   142.3145000   
435000000     -6.7994300    -120.4075000  22.7139100    103.2822000   -30.1576500   -0.9957180    -22.6473800   141.8528000   
440000000     -6.7899300    -121.3587000  22.6767400    102.5243000   -30.1243100   -1.2027030    -22.7191400   141.4115000   
445000000     -6.7794260    -122.3249000  22.6397400    101.7575000   -30.0917500   -1.4026890    -22.7827500   140.9919000   
450000000     -6.7728940    -123.2995000  22.6019900    100.9984000   -30.0595900   -1.5847420    -22.8536000   140.5518000   
455000000     -6.7587570    -124.2408000  22.5653000    100.2388000   -30.0266400   -1.7963410    -22.9220000   140.1466000   
460000000     -6.7527660    -125.1485000  22.5282600    99.4877900    -29.9955300   -2.0015230    -22.9934700   139.6833000   
465000000     -6.7435790    -126.1068000  22.4911200    98.7298700    -29.9610900   -2.2060380    -23.0699300   139.2953000   
470000000     -6.7368850    -127.0114000  22.4549500    97.9835800    -29.9286900   -2.4210590    -23.1435100   138.9020000   
475000000     -6.7274160    -127.9323000  22.4184500    97.2305500    -29.8947700   -2.6256480    -23.2247400   138.5405000   
480000000     -6.7172720    -128.8409000  22.3814100    96.4871200    -29.8621300   -2.8297270    -23.3047300   138.0856000   
485000000     -6.7073040    -129.7575000  22.3441100    95.7441500    -29.8295700   -3.0470300    -23.3831200   137.7253000   
490000000     -6.7026220    -130.6630000  22.3059400    95.0098600    -29.7993300   -3.2608420    -23.4503900   137.2373000   
495000000     -6.6889840    -131.5566000  22.2692400    94.2690700    -29.7644400   -3.4646760    -23.5343800   136.9145000   
500000000     -6.6847260    -132.4354000  22.2323600    93.5383400    -29.7322900   -3.6912340    -23.6161600   136.5272000   
525000000     -6.6355200    -136.7332000  22.0461300    89.9051100    -29.5688300   -4.7830290    -24.0164900   134.7194000   
550000000     -6.6072070    -140.8932000  21.8628800    86.3269200    -29.4086400   -5.9192110    -24.4056900   132.8755000   
575000000     -6.5701940    -145.0035000  21.6754300    82.8303200    -29.2415300   -7.0797280    -24.8818500   131.5201000   
600000000     -6.5447570    -148.7420000  21.4966600    79.3637000    -29.0792800   -8.2632030    -25.3239200   129.9899000   
625000000     -6.5076640    -152.5446000  21.3149300    75.9252200    -28.9148700   -9.4774210    -25.8065700   128.6360000   
650000000     -6.4902840    -156.2633000  21.1318000    72.5518000    -28.7526300   -10.7570400   -26.2794100   127.5890000   
675000000     -6.4660960    -159.9364000  20.9538900    69.1833000    -28.5894600   -12.0786300   -26.8018600   126.8389000   
700000000     -6.4372620    -163.6161000  20.7666200    65.8397600    -28.4305100   -13.4903400   -27.3481100   125.7543000   
725000000     -6.4811480    -167.3540000  20.5607600    62.5907900    -28.3024700   -14.9592100   -28.1648200   123.6985000   
750000000     -6.5989160    -169.9537000  20.3920300    59.8223500    -28.1621000   -15.9205600   -29.4054500   126.8218000   
775000000     -6.5323560    -172.8206000  20.2564300    56.5632500    -27.9720800   -17.3109600   -29.8030200   129.0112000   
800000000     -6.5010450    -176.0375000  20.0905700    53.3336700    -27.8075200   -18.8205800   -30.4011700   130.4345000   
825000000     -6.4922640    -179.0561000  19.9265000    50.1840900    -27.6482200   -20.3190900   -31.0527700   132.3241000   
850000000     -6.5050890    177.9427000   19.7611800    47.0821200    -27.4942000   -21.8166500   -31.7362200   135.0736000   
875000000     -6.5028370    174.9530000   19.5935200    44.0290600    -27.3434800   -23.3620900   -32.3702600   138.7262000   
900000000     -6.5276370    172.0745000   19.4330400    40.9932200    -27.1937000   -24.9143100   -33.1038800   144.5805000   
925000000     -6.5362430    169.3422000   19.2741400    37.9694400    -27.0492800   -26.4711200   -33.6598900   151.0232000   
950000000     -6.5597380    166.4983000   19.1145100    34.9906700    -26.9076400   -28.0565200   -34.0678400   159.0282000   
975000000     -6.5721880    163.7886000   18.9561100    32.0163600    -26.7622800   -29.6581900   -34.0492800   166.9144000   
1000000000    -6.5906960    161.0776000   18.7995700    29.0764000    -26.6243000   -31.3036300   -33.8967000   174.7514000   
1025000000    -6.6258640    158.4491000   18.6449100    26.1348000    -26.4916500   -32.9562800   -33.5602400   -177.5543000  
1050000000    -6.6451830    155.8454000   18.4884100    23.2144900    -26.3539300   -34.6174400   -32.9607400   -170.5607000  
1075000000    -6.6524600    153.2281000   18.3311200    20.3128900    -26.2263400   -36.3235600   -32.1470500   -164.0269000  
1100000000    -6.6786880    150.6380000   18.1744100    17.4058200    -26.1065500   -38.0373400   -31.0928700   -158.5644000  
1125000000    -6.6835630    147.9380000   18.0079400    14.5533600    -25.9935200   -39.7366300   -29.8513600   -153.8517000  
1150000000    -6.6918870    145.0766000   17.8255500    11.7852900    -25.9042600   -41.3948200   -28.3043700   -151.1134000  
1175000000    -6.7498200    141.9795000   17.6314900    9.3580880     -25.8222500   -42.6832400   -26.5517100   -153.2700000  
1200000000    -6.9391180    139.0939000   17.5113600    7.2861220     -25.6629100   -43.7123000   -25.4949500   -161.8664000  
1225000000    -7.1011680    137.2395000   17.4682800    4.7506830     -25.4396500   -45.2746600   -25.5814700   -168.3725000  
1250000000    -7.1706340    135.3248000   17.3911900    1.8494390     -25.2553700   -47.2041900   -25.7892600   -169.5282000  
1275000000    -7.2174940    133.3364000   17.2865200    -1.0817400    -25.1055800   -49.1880400   -25.7283000   -169.2607000  
1300000000    -7.2568000    131.2009000   17.1702600    -3.9633740    -24.9659700   -51.0979700   -25.4841100   -168.6277000  
1325000000    -7.3082720    129.0240000   17.0491300    -6.7801760    -24.8373000   -53.0333300   -25.1163500   -168.1571000  
1350000000    -7.3570500    126.8761000   16.9276200    -9.5716080    -24.7107000   -54.9530100   -24.6465700   -167.9725000  
1375000000    -7.4163270    124.6592000   16.8024400    -12.3510700   -24.5887200   -56.8341500   -24.2259700   -168.5330000  
1400000000    -7.4611760    122.4650000   16.6797800    -15.1115400   -24.4706400   -58.6932400   -23.8269400   -169.1567000  
1425000000    -7.5093540    120.4099000   16.5560300    -17.8164700   -24.3484400   -60.5660400   -23.3944400   -169.9885000  
1450000000    -7.5799530    118.2853000   16.4361200    -20.5075200   -24.2335800   -62.4449400   -22.9892000   -170.9092000  
1475000000    -7.6446660    116.0940000   16.3156900    -23.1983800   -24.1148900   -64.3539500   -22.6176400   -171.9494000  
1500000000    -7.7071380    113.9863000   16.1983500    -25.8774400   -24.0001900   -66.2551100   -22.2504800   -173.2428000  
1525000000    -7.7714310    111.7498000   16.0852300    -28.5365400   -23.8846200   -68.1936100   -21.9012500   -174.5566000  
1550000000    -7.8358170    109.7163000   15.9699300    -31.1988600   -23.7711600   -70.0810500   -21.5943100   -175.8882000  
1575000000    -7.9051440    107.6463000   15.8591700    -33.8403100   -23.6577600   -72.0126300   -21.2548300   -177.3199000  
1600000000    -7.9770650    105.5154000   15.7550200    -36.4892700   -23.5455200   -73.9571800   -20.9043000   -178.8673000  
1625000000    -8.0562710    103.3277000   15.6432800    -39.1164800   -23.4355600   -75.9032500   -20.6143800   179.6097000   
1650000000    -8.1132550    101.2966000   15.5380200    -41.7301600   -23.3304700   -77.8446100   -20.3315600   178.0177000   
1675000000    -8.1950100    99.1311300    15.4310000    -44.3526500   -23.2197100   -79.8361000   -20.0606600   176.2397000   
1700000000    -8.2829860    97.1016000    15.3273300    -47.0005600   -23.1194500   -81.8099300   -19.7947600   174.4999000   
1725000000    -8.3707380    94.9887100    15.2220500    -49.5916200   -23.0146900   -83.7727000   -19.5323500   172.9380000   
1750000000    -8.4514450    92.8633600    15.1207100    -52.1814900   -22.9106800   -85.7570600   -19.2797200   171.2686000   
1775000000    -8.5336100    90.7501900    15.0191500    -54.7797500   -22.8104500   -87.7650800   -19.0347900   169.7577000   
1800000000    -8.6354930    88.6667300    14.9169100    -57.3626800   -22.7146100   -89.7211600   -18.7594600   167.6537000   
1825000000    -8.7269780    86.6284300    14.8213000    -59.9275600   -22.6102500   -91.6874700   -18.5361000   165.7612000   
