!Mini-Circuits Laboratory
!S-Parameters
!Model: ZX60-33LNR-S+
!Run / Lot / Date Code: E181103 / N/A / N/A
!Fixture: N/A, Pressing Arm: N/A
!Network Analyzer: PNA-X N5242A - 423 4 ports;  Serial number: 74302
!Date: 11/9/2018 at 2:34:54 PM
!S/N: Unit# 2
!Volage and Current limited to 5V and 150mA
# Hz  S  dB  R  50
!Frequency    S11 dB        S11 Deg       S21 dB        S21 Deg       S12 dB        S12 Deg       S22 dB        S22 Deg       
10000000      -7.1041240    -8.3090370    24.7732000    -167.1111000  -39.7240500   80.6878800    -16.5040400   44.7615900    
15000000      -7.3259220    -10.4374600   24.8507700    -173.1715000  -36.9042700   65.4153800    -19.5881600   -2.9500260    
20000000      -7.6006260    -11.7560500   24.8461300    -177.2204000  -35.3578400   54.4350700    -21.1628600   -39.0543900   
25000000      -7.7888240    -13.0183900   24.8176400    -179.8709000  -34.4295600   46.3908900    -21.4486200   -68.1181900   
30000000      -7.8586590    -14.1858800   24.7847000    178.3435000   -33.8419600   40.4313900    -21.1290100   -87.7163300   
35000000      -7.9044070    -15.3062000   24.7582200    176.7668000   -33.4319800   35.8414000    -20.8745800   -101.9022000  
40000000      -7.9512470    -16.6045700   24.7407500    175.3038000   -33.1496600   32.0263200    -20.6493100   -113.2117000  
45000000      -7.9639340    -17.9401800   24.7264800    173.9746000   -32.9314800   28.9510600    -20.4735000   -121.9110000  
50000000      -7.9786530    -18.8398400   24.7216300    172.6571000   -32.7469400   26.7329100    -20.4943800   -129.3467000  
55000000      -7.9648600    -20.7474700   24.7085900    171.5644000   -32.6357300   24.3148900    -20.2180700   -134.7152000  
60000000      -7.9533960    -22.3006200   24.6989300    170.4166000   -32.5352200   22.4892900    -20.1391200   -139.6184000  
65000000      -7.9492930    -23.8245200   24.6894800    169.2909000   -32.4486100   20.9272700    -20.0679400   -143.9283000  
70000000      -7.9414200    -25.3823100   24.6781300    168.1789000   -32.3737200   19.5622300    -20.0174400   -147.7602000  
75000000      -7.9397500    -26.9929900   24.6658700    167.0939000   -32.3169200   18.3749000    -19.9538000   -151.1557000  
80000000      -7.9273130    -28.5522000   24.6542800    166.0199000   -32.2625100   17.3516100    -19.9324500   -154.1383000  
85000000      -7.9103980    -30.1677100   24.6427900    164.9514000   -32.2178500   16.3942000    -19.9215200   -156.7991000  
90000000      -7.8998790    -31.7732500   24.6297900    163.9030000   -32.1745800   15.5991200    -19.9039400   -159.1691000  
95000000      -7.8869350    -33.3438900   24.6168000    162.8648000   -32.1365200   14.8185600    -19.8992700   -161.4650000  
100000000     -7.8762400    -34.9721500   24.6040500    161.8250000   -32.1026600   14.1382100    -19.8894800   -163.4834000  
105000000     -7.8665670    -36.5369600   24.5865700    160.8033000   -32.0660400   13.5360100    -19.8977900   -165.5096000  
110000000     -7.8460690    -38.1298800   24.5734800    159.7961000   -32.0386400   12.9641200    -19.8999000   -167.1017000  
115000000     -7.8378740    -39.6949800   24.5543900    158.7863000   -32.0070300   12.4333200    -19.9029900   -168.9747000  
120000000     -7.8260790    -41.2937700   24.5352200    157.7811000   -31.9799100   11.9631500    -19.9100600   -170.5913000  
125000000     -7.8079940    -42.8264700   24.5179000    156.8028000   -31.9525400   11.5038000    -19.9265200   -172.1462000  
130000000     -7.7941580    -44.3361600   24.4996400    155.8119000   -31.9274500   11.0702800    -19.9355700   -173.6579000  
135000000     -7.7881430    -45.9439300   24.4781800    154.8328000   -31.9030800   10.7174400    -19.9598800   -175.0362000  
140000000     -7.7642810    -47.4805700   24.4600400    153.8698000   -31.8777200   10.3105000    -19.9675700   -176.2278000  
145000000     -7.7567480    -49.0500100   24.4406900    152.9040000   -31.8501700   10.0110700    -19.9885400   -177.6242000  
150000000     -7.7362730    -50.5528500   24.4195700    151.9384000   -31.8271200   9.7021210     -20.0124100   -178.8493000  
155000000     -7.7215870    -52.0944000   24.3969500    150.9796000   -31.7996300   9.4106660     -20.0333400   179.9609000   
160000000     -7.7092760    -53.6061900   24.3741800    150.0157000   -31.7768400   9.1296680     -20.0438600   178.7795000   
165000000     -7.6941050    -55.0874300   24.3509600    149.0712000   -31.7525500   8.8791010     -20.0721100   177.6497000   
170000000     -7.6773540    -56.5610500   24.3267300    148.1261000   -31.7283100   8.5924970     -20.1052500   176.4916000   
175000000     -7.6580470    -58.0360300   24.3038000    147.1895000   -31.7020200   8.3556110     -20.1407600   175.4974000   
180000000     -7.6482740    -59.5036000   24.2779100    146.2582000   -31.6773100   8.1220970     -20.1677600   174.5005000   
185000000     -7.6262180    -60.9554700   24.2542300    145.3192000   -31.6533000   7.9059330     -20.1931600   173.5394000   
190000000     -7.6165190    -62.4006300   24.2277000    144.3928000   -31.6272700   7.6762170     -20.2260800   172.5456000   
195000000     -7.5951480    -63.8328400   24.2022300    143.4692000   -31.6028000   7.4791060     -20.2636400   171.5995000   
200000000     -7.5829980    -65.2743700   24.1748100    142.5577000   -31.5754200   7.2569050     -20.2787000   170.7044000   
205000000     -7.5679340    -66.6516300   24.1478700    141.6454000   -31.5498000   7.0701780     -20.3262100   169.8314000   
210000000     -7.5510850    -68.0722100   24.1203200    140.7248000   -31.5240600   6.8737580     -20.3589400   168.9787000   
215000000     -7.5300840    -69.4566100   24.0943900    139.8245000   -31.4967900   6.6906920     -20.3997700   168.1969000   
220000000     -7.5189780    -70.8159200   24.0659100    138.9276000   -31.4725900   6.5009500     -20.4431500   167.3391000   
225000000     -7.5008260    -72.2001200   24.0372200    138.0103000   -31.4450100   6.3367510     -20.4677500   166.5255000   
230000000     -7.4832170    -73.5305600   24.0098100    137.1352000   -31.4179500   6.1375410     -20.5191000   165.7028000   
235000000     -7.4648830    -74.9613600   23.9815000    136.2326000   -31.3903400   5.9709030     -20.5468900   164.9665000   
240000000     -7.4497420    -76.2862200   23.9515200    135.3460000   -31.3621100   5.7962710     -20.5830000   164.1645000   
245000000     -7.4322300    -77.6346500   23.9225600    134.4552000   -31.3354600   5.6281970     -20.6137000   163.3537000   
250000000     -7.4177240    -79.0333900   23.8914000    133.5647000   -31.3025900   5.4558660     -20.6555600   162.6284000   
255000000     -7.4030630    -80.2604200   23.8619800    132.6995000   -31.2771400   5.2801710     -20.7100000   161.7969000   
260000000     -7.3766190    -81.5282600   23.8330000    131.8118000   -31.2479700   5.1102940     -20.7514600   161.0445000   
265000000     -7.3574740    -82.8946200   23.8036200    130.9383000   -31.2192600   4.9497080     -20.7936000   160.3415000   
270000000     -7.3456240    -84.1554300   23.7719500    130.0762000   -31.1911400   4.7806220     -20.8398600   159.5526000   
275000000     -7.3323860    -85.4413400   23.7406200    129.2109000   -31.1624300   4.6040580     -20.8786800   158.8686000   
280000000     -7.3117310    -86.6924400   23.7075000    128.3517000   -31.1310100   4.4555030     -20.9317400   158.1555000   
285000000     -7.2972500    -87.9593000   23.6748900    127.4967000   -31.1014300   4.2788420     -20.9802900   157.4431000   
290000000     -7.2761040    -89.2183400   23.6437800    126.6384000   -31.0736300   4.1277300     -21.0176400   156.8147000   
295000000     -7.2588320    -90.4415200   23.6115600    125.7900000   -31.0418800   3.9530100     -21.0673400   156.1275000   
300000000     -7.2396890    -91.6709200   23.5811800    124.9462000   -31.0090500   3.7979040     -21.1205600   155.5795000   
305000000     -7.2287430    -92.8584200   23.5469000    124.1004000   -30.9800100   3.6233970     -21.1747000   154.8653000   
310000000     -7.2058080    -94.0461600   23.5162400    123.2653000   -30.9484100   3.4767230     -21.2282800   154.3279000   
315000000     -7.1929460    -95.2260000   23.4819000    122.4321000   -30.9196100   3.2884860     -21.2757600   153.6902000   
320000000     -7.1774760    -96.3987400   23.4492400    121.6064000   -30.8881700   3.1272200     -21.3264000   153.0808000   
325000000     -7.1592870    -97.5768500   23.4163200    120.7711000   -30.8567500   2.9639160     -21.3724800   152.4979000   
330000000     -7.1430450    -98.7556500   23.3821500    119.9268000   -30.8270000   2.7852220     -21.4252100   151.9111000   
335000000     -7.1282400    -99.9204900   23.3481600    119.1087000   -30.7934700   2.6177340     -21.4760500   151.3775000   
340000000     -7.1139280    -101.0487000  23.3140400    118.2885000   -30.7633300   2.4478880     -21.5360300   150.7732000   
345000000     -7.0960800    -102.1703000  23.2816600    117.4679000   -30.7313800   2.2835120     -21.6064000   150.2522000   
350000000     -7.0830360    -103.3486000  23.2471400    116.6304000   -30.7022000   2.0788740     -21.6335300   149.7158000   
355000000     -7.0672210    -104.4333000  23.2115500    115.8311000   -30.6663200   1.9305660     -21.7059000   149.1543000   
360000000     -7.0486720    -105.5500000  23.1776400    115.0262000   -30.6355700   1.7532550     -21.7647000   148.6439000   
365000000     -7.0417890    -106.6810000  23.1425100    114.2230000   -30.6035700   1.5603770     -21.8161800   148.0437000   
370000000     -7.0301130    -107.7928000  23.1067900    113.4126000   -30.5726000   1.3957910     -21.8682700   147.4906000   
375000000     -7.0185610    -108.8402000  23.0720800    112.6108000   -30.5397500   1.2171790     -21.9220700   146.9426000   
380000000     -6.9950320    -109.9082000  23.0378000    111.8086000   -30.5066100   1.0300050     -21.9796800   146.4272000   
385000000     -6.9830940    -110.9684000  23.0022200    111.0159000   -30.4742200   0.8395772     -22.0378500   145.8065000   
390000000     -6.9653850    -112.0164000  22.9682600    110.2105000   -30.4428300   0.6617208     -22.0967500   145.2952000   
395000000     -6.9556150    -113.0665000  22.9318900    109.4228000   -30.4119500   0.4757930     -22.1525900   144.6935000   
400000000     -6.9420100    -114.1336000  22.8968900    108.6236000   -30.3788900   0.2896305     -22.2145700   144.2254000   
405000000     -6.9293480    -115.1322000  22.8609500    107.8467000   -30.3457600   0.1132441     -22.2805700   143.6265000   
410000000     -6.9155480    -116.1820000  22.8239600    107.0574000   -30.3130000   -0.0911741    -22.3254000   143.1657000   
415000000     -6.9022770    -117.1999000  22.7870000    106.2858000   -30.2796300   -0.2667759    -22.3967500   142.5827000   
420000000     -6.8932600    -118.1909000  22.7515600    105.5020000   -30.2475200   -0.4629652    -22.4661800   142.0414000   
425000000     -6.8795350    -119.1826000  22.7168400    104.7279000   -30.2136900   -0.6670231    -22.5329700   141.6299000   
430000000     -6.8705100    -120.1547000  22.6819800    103.9564000   -30.1815800   -0.8604904    -22.6120600   141.1438000   
435000000     -6.8597490    -121.1304000  22.6453400    103.1857000   -30.1498100   -1.0506650    -22.6766600   140.6620000   
440000000     -6.8479820    -122.0924000  22.6079500    102.4258000   -30.1171700   -1.2536650    -22.7498200   140.2101000   
445000000     -6.8394100    -123.0630000  22.5715100    101.6579000   -30.0842700   -1.4572480    -22.8150900   139.7694000   
450000000     -6.8287580    -124.0403000  22.5336600    100.8985000   -30.0499800   -1.6715400    -22.8883100   139.3178000   
455000000     -6.8167510    -124.9955000  22.4971500    100.1385000   -30.0193700   -1.8504690    -22.9568300   138.8950000   
460000000     -6.8114790    -125.9063000  22.4595400    99.3823500    -29.9868500   -2.0652320    -23.0267300   138.4067000   
465000000     -6.8028410    -126.8741000  22.4222900    98.6277800    -29.9544200   -2.2707340    -23.1037300   138.0147000   
470000000     -6.7974570    -127.7844000  22.3866800    97.8793900    -29.9220800   -2.4819870    -23.1777000   137.5988000   
475000000     -6.7870920    -128.7209000  22.3502500    97.1263400    -29.8874100   -2.6921050    -23.2616900   137.2276000   
480000000     -6.7787610    -129.6295000  22.3124500    96.3784100    -29.8555800   -2.8938420    -23.3404600   136.7645000   
485000000     -6.7652970    -130.5447000  22.2754000    95.6346000    -29.8223000   -3.1129220    -23.4203900   136.3916000   
490000000     -6.7610500    -131.4612000  22.2374800    94.8966400    -29.7904800   -3.3258750    -23.4891800   135.8982000   
495000000     -6.7474750    -132.3768000  22.1996300    94.1560400    -29.7575200   -3.5366270    -23.5737800   135.5719000   
500000000     -6.7434500    -133.2658000  22.1629100    93.4269000    -29.7259600   -3.7622540    -23.6576300   135.1629000   
525000000     -6.6949200    -137.5754000  21.9762500    89.7852600    -29.5665800   -4.8428910    -24.0853700   133.3680000   
550000000     -6.6689760    -141.7639000  21.7919200    86.2066400    -29.4071800   -5.9832420    -24.5043200   131.5909000   
575000000     -6.6324910    -145.8792000  21.6035900    82.7025100    -29.2406800   -7.1634230    -25.0138900   130.3166000   
600000000     -6.6104280    -149.6538000  21.4242200    79.2338200    -29.0767000   -8.3363400    -25.4881600   128.9434000   
625000000     -6.5778730    -153.5069000  21.2397000    75.8011600    -28.9141400   -9.5474560    -25.9953300   127.7463000   
650000000     -6.5625620    -157.2267000  21.0590400    72.4107000    -28.7487000   -10.8234800   -26.4811800   126.7829000   
675000000     -6.5390750    -160.9078000  20.8778000    69.0470400    -28.5857700   -12.1550100   -27.0076800   126.0656000   
700000000     -6.5076830    -164.6557000  20.6903800    65.6967100    -28.4312000   -13.5677200   -27.5607700   125.0606000   
725000000     -6.5407180    -168.4933000  20.4838600    62.4445600    -28.3042400   -15.0279400   -28.4249000   123.3209000   
750000000     -6.6961770    -171.2355000  20.3111700    59.7558200    -28.1656000   -15.9448500   -29.6630200   127.9415000   
775000000     -6.6222180    -173.9760000  20.1837600    56.4791900    -27.9653000   -17.3802900   -29.8884500   130.5101000   
800000000     -6.5844480    -177.2076000  20.0207000    53.2209400    -27.8023500   -18.8799200   -30.4223200   131.9227000   
825000000     -6.5857650    179.7331000   19.8553500    50.0432500    -27.6454400   -20.3658100   -31.0286900   134.0195000   
850000000     -6.5847900    176.6916000   19.6886900    46.9260200    -27.4923200   -21.8910700   -31.6861100   136.9321000   
875000000     -6.5842300    173.6807000   19.5202500    43.8537000    -27.3374500   -23.4347700   -32.2426000   140.6488000   
900000000     -6.6060390    170.7809000   19.3589900    40.8203200    -27.1931600   -25.0029500   -32.8608200   146.4663000   
925000000     -6.6138260    167.9649000   19.1986000    37.7886000    -27.0509800   -26.5710300   -33.3202100   152.4602000   
950000000     -6.6373540    165.1201000   19.0381200    34.7963400    -26.9088100   -28.1650700   -33.6075800   160.0491000   
975000000     -6.6462470    162.3860000   18.8777500    31.8112100    -26.7660300   -29.7806500   -33.5203200   167.3905000   
1000000000    -6.6667070    159.6386000   18.7200500    28.8549500    -26.6283000   -31.4301000   -33.2969800   174.6956000   
1025000000    -6.6974520    156.9788000   18.5634200    25.9129600    -26.4972800   -33.0662100   -32.9300200   -178.2578000  
1050000000    -6.7096740    154.3478000   18.4060300    22.9892300    -26.3638600   -34.7575700   -32.3593500   -171.6896000  
1075000000    -6.7198160    151.6947000   18.2465400    20.0733600    -26.2379500   -36.4584300   -31.5429500   -165.4210000  
1100000000    -6.7367380    149.0432000   18.0835400    17.1617900    -26.1214400   -38.1637100   -30.4778800   -160.1888000  
1125000000    -6.7435440    146.2259000   17.9059800    14.3274100    -26.0207100   -39.8560700   -29.1408000   -155.7413000  
1150000000    -6.7678840    143.1905000   17.7111400    11.6539600    -25.9402900   -41.3869300   -27.4326900   -154.3222000  
1175000000    -6.8753090    140.0416000   17.5346800    9.4637280     -25.8362000   -42.4493400   -25.7764500   -159.5823000  
1200000000    -7.0724750    137.5329000   17.4665200    7.2625480     -25.6263600   -43.6280800   -25.3007000   -168.6199000  
1225000000    -7.1900660    135.7563000   17.4118900    4.4800190     -25.4159200   -45.4412900   -25.5556400   -172.7417000  
1250000000    -7.2438330    133.7399000   17.3181300    1.5304500     -25.2504000   -47.4260300   -25.6691400   -172.8490000  
1275000000    -7.2883520    131.6315000   17.2053700    -1.3852400    -25.1091200   -49.3662700   -25.5449600   -172.3953000  
1300000000    -7.3278720    129.4892000   17.0837300    -4.2437530    -24.9708800   -51.2880600   -25.2744900   -171.8834000  
1325000000    -7.3884760    127.2666000   16.9598200    -7.0639510    -24.8462100   -53.2056500   -24.9058100   -171.5741000  
1350000000    -7.4393420    125.0561000   16.8378600    -9.8586830    -24.7216200   -55.1182900   -24.4429500   -171.4860000  
1375000000    -7.4957970    122.8385000   16.7109400    -12.6404600   -24.6015900   -56.9981900   -24.0268300   -172.1165000  
1400000000    -7.5413800    120.6439000   16.5846900    -15.3906700   -24.4836100   -58.8782000   -23.6533100   -172.7065000  
1425000000    -7.5914680    118.5563000   16.4608900    -18.0991700   -24.3615100   -60.7368100   -23.2493000   -173.4570000  
1450000000    -7.6581230    116.4246000   16.3403000    -20.7921400   -24.2513800   -62.6185600   -22.8616700   -174.3854000  
1475000000    -7.7237520    114.1832000   16.2186400    -23.4854500   -24.1336400   -64.5198900   -22.5008200   -175.4635000  
1500000000    -7.7874340    112.1021000   16.1012200    -26.1573800   -24.0173500   -66.4508100   -22.1458100   -176.7139000  
1525000000    -7.8540500    109.8231000   15.9851400    -28.8345000   -23.9032000   -68.3754400   -21.8063800   -178.0072000  
1550000000    -7.9206490    107.7758000   15.8682800    -31.4843700   -23.7922700   -70.2726100   -21.5107700   -179.2919000  
1575000000    -7.9892060    105.6874000   15.7572100    -34.1343200   -23.6818400   -72.2013100   -21.1929600   179.2833000   
1600000000    -8.0618720    103.5595000   15.6495500    -36.7872500   -23.5702200   -74.1492000   -20.8452200   177.8053000   
1625000000    -8.1373830    101.3809000   15.5372400    -39.4242300   -23.4616300   -76.0920600   -20.5536000   176.2810000   
1650000000    -8.2009730    99.3297500    15.4307400    -42.0254900   -23.3551000   -78.0304000   -20.2777900   174.7434000   
1675000000    -8.2796520    97.1654000    15.3221600    -44.6582400   -23.2475600   -80.0319200   -20.0051700   173.1156000   
1700000000    -8.3734220    95.0888400    15.2157600    -47.2971100   -23.1477000   -82.0148900   -19.7309600   171.3843000   
1725000000    -8.4494120    92.9530800    15.1079200    -49.9032600   -23.0470400   -83.9847300   -19.4711100   169.8601000   
1750000000    -8.5400390    90.8404400    15.0054200    -52.4659100   -22.9449200   -85.9608200   -19.1991600   168.2439000   
1775000000    -8.6211960    88.7064700    14.9038300    -55.0581900   -22.8458200   -87.9518400   -18.9409300   166.5427000   
1800000000    -8.7232240    86.6727000    14.8036000    -57.6383300   -22.7498700   -89.9045600   -18.6776800   164.3714000   
1825000000    -8.8139820    84.6737100    14.7072200    -60.2083900   -22.6436700   -91.8810800   -18.4656400   162.4616000   
